(0.000102) sim 7E0#00D432D4147A540E
(0.020601) sim 7E8#0113B8F65436E8A0
(0.041058) sim 300#02E748C96D560E65
(0.061583) sim 200#0319EF638D8DFDF7
(0.082216) sim 123#041296BFBF0FD331
(0.102659) sim 18FF50E0#05D917C64E728E03
(0.123315) sim 7E0#06242C87C28FD28D
(0.143761) sim 456#0768A01AF8F3FEAD
(0.164287) sim 7E0#0818BFD3A086C967
(0.184755) sim 123#0910989CC03E9F27
(0.205136) sim 123#0AAEF6C669B8A25F
(0.225528) sim 7E0#0B10E272444BC8F6
(0.246018) sim 300#0CD4796DAE742278
(0.266392) sim 7E0#0D576877FAA9BDBA
(0.286900) sim 456#0E23CA1B8202B9B2
(0.307292) sim 7E8#0FDFCB45575EDFCA
(0.327726) sim 7E0#1028184D25FD4924
(0.348227) sim 18DAF110#11046EFB7292EA62
(0.368574) sim 300#1243FEB859FDCDD9
(0.388895) sim 300#131AAED9C617C0DA
(0.409257) sim 18FF50E0#144755FF441AA848
(0.429585) sim 7E8#15ECF096A3F8D7C9
(0.450089) sim 123#16E6B2E40C1D2833
(0.470607) sim 123#17C9FD48789BB428
(0.491186) sim 200#18EBFAFFC7807D02
(0.511834) sim 7E0#1930D671534FC15C
(0.532218) sim 18FF50E0#1A82146A0808A3D5
(0.552722) sim 300#1B348D28790C6DE0
(0.573148) sim 200#1CF440BA9287A5AF
(0.593637) sim 123#1DF45F475E5D66C6
(0.614151) sim 300#1E32261B204C4629
(0.634549) sim 7E8#1FE0925818D6B2E9
(0.654992) sim 123#200009E16AD93741
(0.675398) sim 456#2161E5F0FD9A970E
(0.695811) sim 18DAF110#22663DB43564BD22
(0.716317) sim 7E0#233F4C224D0328D3
(0.737116) sim 7E8#2403668D36F1FD65
(0.757888) sim 7E8#254979E35E9369CB
(0.778699) sim 7E8#26E938CE1DEC735C
(0.799148) sim 18DAF110#2730F9295E24A0F7
(0.819696) sim 18FF50E0#2814BC89856B27BF
(0.840065) sim 18DAF110#2939C4E13CFF066E
(0.860586) sim 7E8#2AFF99F11D9F12AD
(0.881104) sim 300#2BE86C16B02CF2E7
(0.901638) sim 18DAF110#2CF0D6F3E1CE8DBA
(0.922091) sim 18DAF110#2DFDF7062AF11011
(0.942534) sim 18FF50E0#2EB9F2765CDADFA6
(0.963075) sim 300#2F0028E3CE5C8593
(0.983484) sim 200#302029E98CA2259F
(1.003928) sim 7E8#3179719076C4FC69
(1.024428) sim 7E0#323F053EA260C578
(1.044854) sim 18FF50E0#3313EB4510D34CF0
(1.065210) sim 18DAF110#34B3E284526A9272
(1.085671) sim 18DAF110#357726BCBA62CDC2
(1.106182) sim 123#363E95464B1619D8
(1.126589) sim 7E8#3777A2B1609E855F
(1.147020) sim 18DAF110#389C2BB722C32786
(1.167499) sim 18DAF110#3976B160BB7C6926
(1.188005) sim 18DAF110#3AA4AD8CB520DE7B
(1.208399) sim 123#3BB1A3197D84C826
(1.228752) sim 7E0#3CB8EA13CFCA508D
(1.249107) sim 18FF50E0#3DAF419B74451154
(1.269446) sim 456#3E18091EFD82E909
(1.290184) sim 7E0#3F3E612318EF4735
(1.310977) sim 7E0#40C5A3B38F4D23E2
(1.331594) sim 200#41846C942F350051
(1.352111) sim 300#42B909CF69D9C61B
(1.372627) sim 456#43939586567AFE15
(1.393190) sim 300#447A8B1C1846B168
(1.414033) sim 456#45058452206B55FF
(1.434560) sim 7E8#46015A6FF4E62F3A
(1.455830) sim 300#47863C051BAAD712
(1.476356) sim 123#4897807264423CDA
(1.496859) sim 7E0#4991D56E5C7598D0
(1.517277) sim 18FF50E0#4A18AB2CB20420E7
(1.537719) sim 18FF50E0#4BBDAD91B86E423E
(1.558110) sim 300#4C473549514B3A4A
(1.578593) sim 200#4D5221EB57E60870
(1.599169) sim 7E8#4E0563D08F1CB69F
(1.619674) sim 456#4FC8DA610EDDD23B
(1.640223) sim 7E8#5051088A267A2443
(1.660772) sim 200#51FCD814B2EAF919
(1.681354) sim 456#5221F2C575C44385
(1.701770) sim 7E8#537BAD13B03F5EFC
(1.722374) sim 18DAF110#54BE690EC4811C62
(1.742891) sim 300#55C30482181F4469
(1.763655) sim 123#563EB65F289B721D
(1.784205) sim 18DAF110#57AA851080D4A59B
(1.804867) sim 123#58E78A8A6013220B
(1.825408) sim 456#5981470F9C1889DC
(1.846087) sim 200#5AC3ECD3A4EDDA2D
(1.866778) sim 456#5B78BD415F1874FA
(1.887350) sim 7E8#5CBFEA7364C55DBF
(1.908062) sim 18FF50E0#5D992571C0424728
(1.928694) sim 7E0#5E393350BC21C38F
(1.949329) sim 18DAF110#5F33E6BCA690CECE
(1.969862) sim 300#60D396DE8D08C4DE
(1.990510) sim 18DAF110#614AE1CA1F15F4B0
(2.011115) sim 7E0#62CA30DD6ED56646
(2.031640) sim 18FF50E0#63A3F3775BB034D4
(2.052064) sim 18DAF110#642A0F7E90E2EADB
(2.072558) sim 18DAF110#65BE8138C78FEB8D
(2.092933) sim 456#661DBD9587FCC7E4
(2.113319) sim 7E8#674BAADFAA3A60EE
(2.133681) sim 200#68E77974D13E5968
(2.154003) sim 7E0#69E1EBD40F33C4DE
(2.174249) sim 7E0#6AEE76DACC5BCCE8
(2.194519) sim 456#6B5493DFA92A8313
(2.214733) sim 456#6C326452D83E5863
(2.234942) sim 300#6D9B47FE3E13BA07
(2.255160) sim 123#6EB2A70383901614
(2.275417) sim 123#6FE6F0CC4E0B41FA
(2.295642) sim 123#707E1A225F428B6C
(2.315937) sim 300#71B884EC50D45092
(2.336333) sim 18FF50E0#724D39970CC5689C
(2.356578) sim 18DAF110#736E34CB71EDEEBF
(2.376830) sim 18FF50E0#74B336C53445C0AE
(2.397217) sim 456#7526D70F81C949F1
(2.417512) sim 300#76D65561D14BC64F
(2.437800) sim 300#775C63DD0BE6E4E0
(2.458130) sim 18FF50E0#78AE1DE72A8AB922
(2.478416) sim 7E8#79C4D866B033C285
(2.498663) sim 456#7AF1090A704B3249
(2.519238) sim 7E0#7BDE3E586F683706
(2.539979) sim 456#7C173257F1965590
(2.560680) sim 18DAF110#7D3BCA0748D555EF
(2.581147) sim 18DAF110#7E60804AFE4865B5
(2.601485) sim 18DAF110#7FAD9C8C41CBF451
(2.621988) sim 123#805EDD0C7AD47631
(2.642342) sim 456#817425C537AF60A7
(2.662597) sim 18DAF110#827512FA61D2B557
(2.682949) sim 7E0#83D4B29C3E54B23D
(2.703230) sim 18DAF110#8494D31C6B5DFD13
(2.723652) sim 200#8527B855DEF2BA93
(2.744234) sim 7E0#864348112017BC27
(2.765014) sim 18DAF110#87CC1451BB4BA878
(2.785563) sim 456#885D78F62EC74683
(2.806159) sim 18FF50E0#89B64B076A14CF22
(2.826869) sim 7E8#8AEAB7C97F93A421
(2.847543) sim 7E8#8BA97C586EAB7B3B
(2.867987) sim 456#8C9E63E73401881F
(2.888499) sim 123#8D831157E5B8EDC7
(2.909144) sim 300#8E913D4FD0CFC6CF
(2.929653) sim 456#8F11F9157FF08493
(2.950197) sim 123#90723DC5CAE1BDFE
(2.970720) sim 18DAF110#91D04D564B35B2D9
(2.991193) sim 7E0#92254872E47B6AC8
(3.011641) sim 7E8#93A81DEAF6EE126C
(3.032200) sim 7E0#94F688782412C5BC
(3.052682) sim 18DAF110#956F6F8DA863F1BD
(3.073325) sim 18FF50E0#96586F295805B112
(3.094175) sim 18DAF110#97A2A607C611BE7F
(3.114718) sim 18FF50E0#98FAF6AA5A453A18
(3.135357) sim 18FF50E0#9966CA187C9AB3A2
(3.155821) sim 18FF50E0#9AE6DEB15FB6398A
(3.176342) sim 7E0#9B98D77B089AACAE
(3.197045) sim 18FF50E0#9CDE03EF4C6D3ACC
(3.217604) sim 123#9D2E39CCE0C55740
(3.238074) sim 123#9E1184E20726C179
(3.258704) sim 123#9FB4A2ECD9965AC1
(3.279319) sim 18FF50E0#A0A3F8D310B7964F
(3.300160) sim 456#A162C7E3861D7D91
(3.320917) sim 18FF50E0#A2C037B9F5B4E64E
(3.341517) sim 123#A391F36A9F483793
(3.362281) sim 300#A484BD9EE6310C9D
(3.382941) sim 456#A5D937653CB9AA94
(3.403670) sim 300#A61DC1DDA48C7DDD
(3.424412) sim 7E8#A715CDF6B9F42061
(3.446935) sim 456#A8E9B8F5F259AAF1
(3.467400) sim 7E8#A9DD73F8727FD3D1
(3.487883) sim 456#AAE299317E0DED87
(3.508574) sim 18DAF110#ABB7EECDAE46F73E
(3.529053) sim 7E8#AC39229069422E85
(3.549730) sim 7E8#AD6593B8FE1FC412
(3.570569) sim 200#AE267FE2765D3775
(3.591308) sim 7E0#AFAD1B7C4B9CF553
(3.611812) sim 18DAF110#B07EDE364E2684F5
(3.632410) sim 300#B12EBCF67D116F32
(3.653004) sim 200#B2AE881C26C39F55
(3.673585) sim 300#B309055276D48B8B
(3.694206) sim 7E8#B4E2BA096333EEBD
(3.714700) sim 7E8#B5843AF6FDDBDD8A
(3.735196) sim 7E8#B680AB7D2CB39708
(3.755772) sim 18DAF110#B7EC724703528C92
(3.776322) sim 123#B8C8AD32F4F461ED
(3.796888) sim 200#B9F082A20BB3563A
(3.817528) sim 18DAF110#BAE885A9C0E60603
(3.838241) sim 7E0#BB405C875F91D4B3
(3.858896) sim 123#BC65DDA359BD2FD9
(3.879295) sim 200#BD044CDE62865D14
(3.900005) sim 456#BE75B6579646EE0F
(3.920527) sim 456#BF4EB0E5B838A5B4
(3.941089) sim 7E8#C051887C0A0832FE
(3.961567) sim 200#C1DF5CF00DCE47A3
(3.982097) sim 7E8#C25ED340B488DA53
(4.002737) sim 7E8#C376D36EE870E9F8
(4.023165) sim 456#C44FD2B1BC355C58
(4.043734) sim 456#C589546CBB6F3169
(4.064236) sim 7E0#C6C157D0B1927B0B
(4.084741) sim 7E8#C74C7998CFD79113
(4.105233) sim 300#C89C9ED63BDAE400
(4.125847) sim 7E0#C9A8A146FBCD95F2
(4.146365) sim 300#CA5AA250C466DD40
(4.166843) sim 200#CB36DD92484AC5A9
(4.187266) sim 200#CC68523140044C76
(4.207832) sim 18DAF110#CD04F101FDD0C88F
(4.228500) sim 7E8#CEC23C8ABB2FE871
(4.248914) sim 7E0#CF4C0616215522EC
(4.269398) sim 456#D0E59F89DA46F989
(4.290052) sim 300#D1776EFDDCAF3704
(4.310526) sim 300#D2543D498893EF98
(4.331020) sim 18DAF110#D3200E2559F088A1
(4.351506) sim 456#D4E259D94F11D5DA
(4.372022) sim 18FF50E0#D5669356482F3725
(4.392593) sim 18DAF110#D6BE9C44BDC38D14
(4.413159) sim 200#D7AC31106D425C8F
(4.433461) sim 18DAF110#D86E4E5EEF5FBCC9
(4.453834) sim 200#D9CE27D69C7A1402
(4.474403) sim 7E0#DA0DF5B8B26E9F64
(4.495147) sim 300#DBA7BBBB3BE6AB89
(4.515646) sim 7E0#DCB6E20C79C8C861
(4.536042) sim 18DAF110#DDCD151D68229060
(4.556414) sim 7E0#DE9A7C882B351F4B
(4.576948) sim 200#DF57AF9DD61A63F3
(4.597408) sim 7E0#E04922C3113F6B7A
(4.617843) sim 123#E17CBE959328A989
(4.638366) sim 200#E24AD95457EEEB90
(4.658795) sim 7E8#E3BD52B7F20506E5
(4.679129) sim 300#E47389EAD049A096
(4.699453) sim 123#E5E495911B39AA28
(4.719759) sim 18FF50E0#E6C5EEF20A094A0E
(4.740139) sim 7E8#E70BC103BC20058B
(4.760522) sim 200#E80689BE1816C723
(4.780981) sim 200#E9DABB0AFE494C21
(4.801411) sim 200#EAAE17BB85B8ED96
(4.822064) sim 300#EB04764E4EFE554D
(4.842421) sim 200#EC5414A86CC1E1B0
(4.862875) sim 18FF50E0#EDFA34B6FFBE9711
(4.883417) sim 18DAF110#EE004C1299B8193B
(4.904002) sim 456#EF3F7C98FEF4BEFB
(4.924443) sim 7E8#F03E3DDF30B18548
(4.944914) sim 123#F1D33DED03C5AB78
(4.965317) sim 123#F28A153C7D1A3FEE
(4.985705) sim 200#F34EC2A567686D95
(5.006214) sim 300#F4BAFD8DEC9D95E3
(5.026874) sim 7E8#F5D03F9AB2CC4C34
(5.047492) sim 200#F6D865A803072968
(5.068001) sim 456#F7A19CC16DFB7C09
(5.088464) sim 123#F8993F3D2490656E
(5.108905) sim 200#F9CAB06A6E50E345
(5.129448) sim 300#FAB6C2D2580DE165
(5.150029) sim 300#FBD9BABE52D625B3
(5.170633) sim 18FF50E0#FC8AD38D2A640D2F
(5.191257) sim 7E8#FDD9BBBDA0D96C75
(5.211834) sim 456#FEC289513529FD10
(5.232445) sim 7E0#FF908FE6DA56EFFB
(5.252968) sim 18FF50E0#009AC067ADE331A7
(5.273400) sim 200#01FB888B8284E9E4
(5.294075) sim 123#0246D723DA2FCBA1
(5.314569) sim 123#033253D8D25DE322
(5.335236) sim 456#04264A022321E315
(5.355942) sim 123#05D7C8C88F829E84
(5.376819) sim 456#062C4BC219C25F65
(5.397579) sim 7E0#071B296D6D0509A8
(5.418700) sim 456#081194888D2AD9E9
(5.439099) sim 300#099FD46F2A239A2F
(5.459420) sim 123#0AF1F93264495BEC
(5.479848) sim 456#0B937F627582A70E
(5.500494) sim 123#0CDDED5E3C8E18B2
(5.521075) sim 7E0#0D0394B08F7E1615
(5.541438) sim 18FF50E0#0ED20780A177E985
(5.561874) sim 300#0FA077B1AF52971B
(5.582486) sim 7E0#10E02B3330590352
(5.603033) sim 300#1172863458BAB8BF
(5.623678) sim 300#1285CDCA0022A28F
(5.644251) sim 18DAF110#13F7D86225E5EA82
(5.664777) sim 7E8#14F7E66E0A4D4118
(5.685376) sim 123#15EA662B8F97728C
(5.706101) sim 300#163C90E2471BED19
(5.726673) sim 456#177F9694F0FCFF84
(5.747494) sim 123#18B114310CBBB264
(5.768229) sim 7E0#1991FF504A63B75C
(5.788707) sim 18FF50E0#1AEE58B4C023D5D7
(5.809271) sim 456#1BEC3D17E8864460
(5.830082) sim 300#1C3039E4336EEAEE
(5.850594) sim 18DAF110#1D3FA72460AD53DE
(5.871302) sim 300#1E5A64336AE88D27
(5.891875) sim 300#1F7A835BF1B008B9
(5.912407) sim 456#20A7C29702D93A25
(5.932775) sim 456#21D0D685E306B3F7
(5.953379) sim 18FF50E0#225246841437128F
(5.973861) sim 7E0#231E4DEBE618DBDA
(5.994323) sim 18FF50E0#240921972E3054FA
(6.014875) sim 300#25E90B4F1FDB6F57
(6.035328) sim 300#268378CBBFF7591F
(6.055851) sim 200#27BEEB75C525362E
(6.076326) sim 456#28DE5E3E66A573CD
(6.096895) sim 300#29F7EFF668B5BE67
(6.117329) sim 18DAF110#2AB87DFE26391A44
(6.137831) sim 200#2B20D1962ED44EFF
(6.158495) sim 300#2CCEBF9816A18326
(6.179031) sim 18FF50E0#2DA034930201FB08
(6.199443) sim 456#2EF026AE96553DA7
(6.219861) sim 456#2F6062FBF784AB20
(6.240375) sim 7E8#300E5E1D321EDFD0
(6.260772) sim 7E8#318633DA7D9A18B5
(6.281325) sim 456#326172836AB7B650
(6.301821) sim 18DAF110#334A00A65C4315C3
(6.322358) sim 18FF50E0#34D385FA0BBFC640
(6.342857) sim 7E0#359A11B62F93724F
(6.363452) sim 18FF50E0#36251A768B0C8911
(6.383938) sim 456#3718E590849669BF
(6.404507) sim 18FF50E0#38F6C3EDB4AE4355
(6.425047) sim 200#39AF06A73373DACC
(6.445740) sim 7E0#3AB5271F1B53990E
(6.466542) sim 7E0#3B7557BE9B2D6658
(6.487086) sim 300#3C6806A42C9A65B7
(6.507700) sim 7E8#3D46D9F378BE6D2F
(6.528440) sim 456#3EB554D5726F1BE7
(6.549215) sim 18FF50E0#3F4215F6E7D6DFCE
(6.570128) sim 300#4018A652CDB0FF9C
(6.590842) sim 7E8#41AB256819D5D798
(6.611475) sim 7E8#42EE34999FA5136E
(6.631948) sim 7E0#43C0ABFBCDE34B7A
(6.652252) sim 18DAF110#44D3D7A02CA21013
(6.672701) sim 300#45277D8AC85979FF
(6.693044) sim 456#463A3A9A946D3D52
(6.713404) sim 300#479735F539F48DC8
(6.733774) sim 456#48D96A3865065496
(6.754322) sim 18DAF110#492E621144E03F53
(6.774932) sim 18DAF110#4AE6B1D30B0F9A91
(6.795775) sim 18FF50E0#4B61BA7A54568A90
(6.816358) sim 123#4C3C3CBEA4C1D2E4
(6.837032) sim 18DAF110#4DD6B60D3ABEBCA2
(6.857631) sim 7E8#4E5030B9962139C8
(6.878273) sim 456#4F6F89E27D4FC453
(6.898880) sim 123#5022599BF9D22DEA
(6.919508) sim 18FF50E0#51CEB229E33174CA
(6.940172) sim 200#52A2A23F75DECE9A
(6.961103) sim 18DAF110#535FE238037FECBC
(6.981742) sim 200#5429FDD01E2F8091
(7.002481) sim 7E8#5573E4CC138AFB38
(7.022968) sim 7E0#568B02519636ADC1
(7.043581) sim 200#57080B39918C1FB1
(7.064248) sim 300#580CE2620B9770B4
(7.084688) sim 300#5965FCC1D770ABC7
(7.105128) sim 200#5AF5CCB6B67691E5
(7.125523) sim 456#5B98A6ABCCADA439
(7.146084) sim 300#5C68ADB07706BB6C
(7.166685) sim 7E0#5D7270626CEB3E79
(7.187196) sim 18DAF110#5E510D3B7ECB0A4C
(7.207655) sim 200#5F5E4B0AAFC48953
(7.228086) sim 456#609EEA2CDAC03149
(7.248600) sim 18DAF110#6173B2CF4F10C79E
(7.268989) sim 7E0#623F3971E482A135
(7.289534) sim 7E0#6325BDD3A1AD7B5F
(7.310052) sim 7E0#649C78FF89A8DD0D
(7.330801) sim 7E0#650B8D38B6C3976B
(7.351493) sim 18DAF110#66CDCDBAD9C28239
(7.372045) sim 18DAF110#679036D384EF5AC7
(7.392534) sim 18FF50E0#68623C5CAD219CFE
(7.412992) sim 18DAF110#69659FFD38D70513
(7.433733) sim 18FF50E0#6ABC6C014256902A
(7.454459) sim 456#6BE14ABFE151FE5D
(7.475058) sim 18FF50E0#6C23709126BF15CB
(7.495630) sim 7E0#6DDFDD8024419B52
(7.516268) sim 7E0#6E264919BB542BED
(7.536964) sim 7E0#6F111F606D838099
(7.557457) sim 300#701B7CCE1CB6300B
(7.577907) sim 18FF50E0#71933EDBFAF47AEF
(7.598386) sim 18FF50E0#726BB65A049C56AF
(7.618796) sim 200#73704B43407DFFC8
(7.639429) sim 18DAF110#749021CBDE33E65E
(7.659836) sim 456#751EF8C000DAB8C0
(7.680301) sim 18DAF110#76ED3FF1656F675D
(7.700647) sim 123#779E1DEF09E3BFA3
(7.721021) sim 7E8#780B8A7B883CCF7B
(7.741403) sim 200#790543053EC6C619
(7.761889) sim 7E8#7A2E6B85EA76730D
(7.782446) sim 7E8#7B369DC0518DFBBF
(7.802788) sim 7E0#7C864119E97FC9A6
(7.823177) sim 200#7D64066886C8D89C
(7.843930) sim 18FF50E0#7EBD32B4712D730B
(7.864521) sim 18DAF110#7F61DC83743B37DB
(7.885134) sim 18FF50E0#801355FECB9ECD26
(7.905489) sim 18DAF110#8174ADF97F776363
(7.926051) sim 7E8#82D61D0AEFBF6D8A
(7.946514) sim 200#8381468406145305
(7.967144) sim 7E8#84302DC99360D399
(7.987868) sim 200#851FDF2B3117FFED
(8.008389) sim 300#86A957D666F8597A
(8.028869) sim 456#87C586B71F4290A3
(8.049269) sim 7E8#88C36A229D3BD2D6
(8.069849) sim 18FF50E0#89B6D49178C844ED
(8.090367) sim 300#8AB9AF2CFB39898B
(8.110785) sim 123#8B24A03664310E0A
(8.131333) sim 7E8#8CA0F8AA034DBB56
(8.151778) sim 300#8D0262A8234FF476
(8.172246) sim 456#8E0A45692F672F49
(8.192749) sim 300#8F4EFBEE53CA4B8A
(8.213147) sim 7E8#908E8292B9E607FF
(8.233734) sim 18FF50E0#9125402AABCC1E2F
(8.254303) sim 7E8#923D487848CADCD2
(8.274769) sim 18DAF110#93F6A4B00501623B
(8.295449) sim 300#940F71F6FC4D806D
(8.315993) sim 200#95319161ED3554AC
(8.336445) sim 123#96EF8536434DFD2A
(8.356926) sim 18FF50E0#97A489095723C71A
(8.377322) sim 123#98D76DEAB1B83CFE
(8.397766) sim 7E8#99034A68BE197FF2
(8.418445) sim 456#9A2F9C64E9DD2920
(8.438734) sim 456#9BE8D2E4F317CD16
(8.459037) sim 18DAF110#9C27376B6042AE79
(8.479475) sim 18DAF110#9DD6D9DD936EDFE3
(8.499946) sim 7E8#9E12F39EADB73F5A
(8.520690) sim 18DAF110#9F0914A1EA233D2A
(8.541212) sim 123#A033DF63F0C28701
(8.561704) sim 7E8#A1D3C766A79279C7
(8.582356) sim 18DAF110#A2F23F3C1FA4667E
(8.602994) sim 18FF50E0#A3F6913E1E462704
(8.623550) sim 18FF50E0#A43A223AEDC44BBD
(8.644029) sim 7E8#A5E9AFC59AF47844
(8.664528) sim 7E8#A68B36FE1A1415C9
(8.685027) sim 200#A7214ACF977F17BD
(8.705455) sim 7E0#A8F2CC5E686699CB
(8.726004) sim 18FF50E0#A97AFBE1DD04D52F
(8.746452) sim 18DAF110#AAFAA173754A8D1D
(8.766864) sim 123#ABFFAF08122A8F4D
(8.787317) sim 7E0#ACA6E20ED612042E
(8.807943) sim 18FF50E0#AD716D0A9AE9BC97
(8.828373) sim 300#AE58C50DE3D7C49F
(8.848989) sim 18DAF110#AF1712DCEEDCA531
(8.869507) sim 18FF50E0#B0BF48890A43752F
(8.890226) sim 300#B1A0270AD9ECAF1E
(8.910577) sim 456#B266E570F6A77A94
(8.931118) sim 7E8#B3058BA3EF38A356
(8.951572) sim 7E8#B4B6FBEB7D4BCE02
(8.972056) sim 7E0#B5DCA9C410D151E7
(8.992696) sim 300#B6F5E92943102040
(9.013142) sim 200#B76976E1DB02E677
(9.033625) sim 200#B84B2540DE1A4DDB
(9.054034) sim 456#B9C19F3A6B854692
(9.074385) sim 200#BA06A2C664957011
(9.094767) sim 18DAF110#BB1F4B791D660A0A
(9.115330) sim 18DAF110#BC39741328CD5045
(9.135853) sim 18DAF110#BD5B7ED0E2BFEDCF
(9.156368) sim 7E0#BEAB966FECD585AE
(9.176860) sim 18DAF110#BFC21DFA2B7815E7
(9.197343) sim 200#C057F686CF3A7BCC
(9.218036) sim 18DAF110#C1BE60D942ED66DA
(9.238436) sim 7E8#C21E0D8EF0A74860
(9.258853) sim 7E8#C326BA40D88CF47B
(9.279432) sim 123#C45CAA8BACDF8447
(9.299896) sim 7E0#C547422269EB65EA
(9.320554) sim 18DAF110#C6641FEED2D0685D
(9.341101) sim 456#C7D2DB9FC6A77B62
(9.361579) sim 123#C8D1174D0BE68159
(9.382212) sim 18FF50E0#C99A6D6859F38B23
(9.402720) sim 300#CA4CCED591320805
(9.423291) sim 7E8#CB3FF13A1F4BAD32
(9.443644) sim 7E8#CC7D230DE510FC8D
(9.463987) sim 200#CD61C3C917A881D7
(9.484439) sim 7E8#CE0499832C2ABE4B
(9.504776) sim 200#CFD0381573E0B671
(9.525324) sim 200#D03E99209AEDCD0A
(9.545814) sim 18DAF110#D120D60E9DCFF7FB
(9.566371) sim 18DAF110#D200099FA222D65B
(9.586799) sim 123#D3C60D4C2A7C8B50
(9.607319) sim 200#D47FF734EC81BDE8
(9.627775) sim 200#D5654C3F6C618E13
(9.648383) sim 300#D607B023ABA218F0
(9.668922) sim 7E0#D7C6E3A4F7482900
(9.689565) sim 456#D8939DEE80F1AF16
(9.710191) sim 200#D95AAA3B9905E00B
(9.730655) sim 456#DA4B7BFE2B1B4A68
(9.751271) sim 123#DB5BD5C821FBF278
(9.771692) sim 300#DC28A5255183477A
(9.792172) sim 300#DDB6AC7C3899C21F
(9.812676) sim 456#DE7C59D44FCDF862
(9.833056) sim 200#DFB213945B3D89A0
(9.853448) sim 18FF50E0#E0022689D17A4430
(9.873806) sim 18DAF110#E1A512FEE2B6CD2B
(9.894246) sim 7E8#E26EACE4C8F861C0
(9.914523) sim 200#E39F13B9F920B613
(9.934929) sim 123#E4087F8ED379C38A
(9.955457) sim 18FF50E0#E5585B5B2AE9FC8C
(9.975834) sim 300#E628C82A1605FBCC
(9.996247) sim 7E8#E72C33666842652E
(10.016840) sim 18FF50E0#E81C1348DF9AD4A7
(10.037373) sim 456#E979DAAF7DA794C3
(10.057697) sim 456#EA0B1A0F2964AC16
(10.078058) sim 7E0#EB7F4F1382F0780B
(10.098454) sim 18FF50E0#ECDED39B423175BC
(10.118884) sim 18DAF110#EDF66CE3748DB80C
(10.139384) sim 300#EE86AFC534785DFA
(10.159769) sim 7E0#EFF758BEAAA9D9C0
(10.180144) sim 18DAF110#F02D5CF5DC4A7E42
(10.200688) sim 18DAF110#F11095CD87B4C3D9
(10.221143) sim 18FF50E0#F2D79FF0F5FCE280
(10.241556) sim 456#F38E6F4451BFE3CE
(10.262000) sim 18FF50E0#F42567DB0004DB4B
(10.282630) sim 18FF50E0#F52A55478D7F3344
(10.303136) sim 7E8#F69579E9387730B0
(10.323745) sim 200#F749421F98BEA68B
(10.344173) sim 7E0#F8C6F3D9BF68475E
(10.364695) sim 123#F98A288196925F3F
(10.385075) sim 300#FA3C66AB3017CFC5
(10.405444) sim 123#FBA472E137EB4674
(10.425862) sim 7E8#FCEFA2F8FF5E432A
(10.446435) sim 18DAF110#FDA7E49C810B6D7F
(10.466738) sim 200#FE3D413EDF9F34B8
(10.487191) sim 18FF50E0#FF66368F3C2DF703
(10.507841) sim 7E8#00CDA67C478B1521
(10.528505) sim 18DAF110#0115F18407638E6B
(10.549037) sim 7E0#02B4E72EF3A03B2D
(10.569560) sim 7E8#03E13F8F080BB70D
(10.590189) sim 7E0#049E95EBD1664112
(10.610793) sim 300#056E0570B56A1678
(10.631190) sim 7E8#06600D9AC591ED5F
(10.651617) sim 300#071F87AE2748A0C3
(10.671999) sim 300#0859323D16DF449A
(10.692399) sim 123#09233104982DE544
(10.712878) sim 18DAF110#0A9F6AE4ECA768FA
(10.733381) sim 456#0BE832594A3DF1CD
(10.753794) sim 123#0C7FE8FDE2275643
(10.774265) sim 123#0DECF94490FE4B79
(10.794960) sim 300#0EF25DBF5D86F830
(10.815252) sim 456#0FC42DC325B136A0
(10.835546) sim 18FF50E0#1075204DD81BDF90
(10.855861) sim 18DAF110#11C216AC4AA2302D
(10.876143) sim 200#122D8019A7621A05
(10.896574) sim 18DAF110#130D7ED11639E30B
(10.916878) sim 200#14591FCF2EBF75DA
(10.937278) sim 7E0#154DCF97D0E54916
(10.957888) sim 7E8#16886AB0589AD6A1
(10.978436) sim 18FF50E0#1790770DE6D73CF7
(10.998832) sim 456#1871CD7D3CF25AAD
(11.019447) sim 456#19EACDCC9B544B75
(11.040001) sim 18DAF110#1A04CE6ABD13B5B1
(11.060608) sim 18FF50E0#1B2794ED44908E98
(11.081179) sim 200#1C0994FCB05E4350
(11.101725) sim 123#1DCFD86892FE1205
(11.122161) sim 456#1EC4DB521A7320F2
(11.142744) sim 123#1F7DEF79E7C95B85
(11.163170) sim 456#20579C84A783360A
(11.183759) sim 300#217EE150364B1B06
(11.204375) sim 18DAF110#227A5625B999CC33
(11.224876) sim 200#2376FBF85D10D3BA
(11.245336) sim 200#24346C5E9645BBB3
(11.265878) sim 200#2505F886D60D52FD
(11.286527) sim 18FF50E0#2654325A094A7E3B
(11.307083) sim 7E8#2795C1326247F00E
(11.327658) sim 456#28F11C1B1F1AA46C
(11.348207) sim 18DAF110#296C494D27674CEE
(11.368861) sim 123#2A9FD1CB66B8AC72
(11.389462) sim 18DAF110#2BFF0D9535968A82
(11.410101) sim 7E0#2C62C85BC1D52524
(11.430660) sim 18DAF110#2DC5B9F995A5EE5D
(11.451133) sim 18DAF110#2E9B98BC67529A50
(11.471693) sim 123#2F7E629C5354756A
(11.492143) sim 200#3034CCF4471D3651
(11.512759) sim 18DAF110#3122BB9751B42EE2
(11.533452) sim 456#32025D61FA5DFF3B
(11.553882) sim 300#3397EF70A2831C19
(11.574388) sim 123#347712619EF0E371
(11.594924) sim 18DAF110#35FBD672538670C4
(11.615320) sim 123#36C6F77213DCA984
(11.635752) sim 300#379E85185D508C11
(11.656063) sim 456#38B26A0F2883AD11
(11.676412) sim 7E8#39806ED154110CB8
(11.696807) sim 7E0#3A51786CCF70596F
(11.717268) sim 7E8#3B05ED987D45527F
(11.737576) sim 18FF50E0#3CCF032EF5CA7D79
(11.757884) sim 18FF50E0#3D2DCCB5490FA424
(11.778404) sim 18DAF110#3EA44F0A90E62D72
(11.798899) sim 7E0#3F2CBE6A3FD66AD3
(11.819484) sim 456#400BD23314D7E2A4
(11.840013) sim 300#41CC1E22ED0DB998
(11.860516) sim 456#428761457F21BBA4
(11.881031) sim 7E8#431B49888D268962
(11.901588) sim 456#446430B70B3A4460
(11.922208) sim 7E8#455E2F8423C70FF8
(11.942732) sim 123#46DB529C2BC32203
(11.963372) sim 300#47BC469C52538BCA
(11.983959) sim 300#48F50D3CFED041A8
(12.004445) sim 7E0#49387D9358434C19
(12.025084) sim 18FF50E0#4AC3BF0130A897C1
(12.045705) sim 456#4BE35A628756E1F5
(12.066271) sim 200#4C26DCC5F5718512
(12.086700) sim 300#4D7A22F5882FC103
(12.107181) sim 300#4EE65FADB88BDF81
(12.127595) sim 18DAF110#4F9A0420AA832EE7
(12.148013) sim 300#501A2C720A162779
(12.168404) sim 300#5115B7C3F7218384
(12.188686) sim 7E0#52557DE606FBA6DC
(12.208958) sim 18DAF110#538D080388BB83F8
(12.229227) sim 7E8#54019572344A8317
(12.249456) sim 7E8#550AE5AC5B2B93BE
(12.269866) sim 7E8#565913D1B234539A
(12.290150) sim 300#57F36ADC760BCB0B
(12.310414) sim 18DAF110#58371E60EB9C9DB5
(12.330625) sim 18FF50E0#592A6E5F83395123
(12.350856) sim 123#5AECDB5956AB6395
(12.371098) sim 200#5B41339323614801
(12.391328) sim 18FF50E0#5C863123CC8C1DD5
(12.411560) sim 123#5D2E459622F49B98
(12.431779) sim 7E8#5E574564214EC76E
(12.452034) sim 7E0#5FFC5FD41FAF4C9D
(12.472359) sim 300#60EB02CA88E9EDB9
(12.492627) sim 200#61FF235EF8AEC280
(12.513072) sim 7E0#62E23C45BED307B3
(12.533693) sim 456#634E379E4BA9CF83
(12.554181) sim 18DAF110#6463E29B9A0FD694
(12.574808) sim 300#653CC947BE44E5AC
(12.595420) sim 7E8#662F26E36188850A
(12.616006) sim 300#67DA4ABA82B00850
(12.636625) sim 18FF50E0#68A00BAF2B98F4F3
(12.657117) sim 123#6994D9DC549567DA
(12.677576) sim 18DAF110#6A9C8AAEB9D3F5E6
(12.698170) sim 300#6BC3ED4F65C6AECF
(12.718745) sim 456#6CC4C1E8C2CF13BF
(12.739210) sim 200#6DCA2D14D8E4A464
(12.759728) sim 18FF50E0#6E0D66773B5324E3
(12.780256) sim 300#6F098C13D4CFB250
(12.800743) sim 123#70FAD702958D0200
(12.821459) sim 123#712F7F3362B863CF
(12.842189) sim 18FF50E0#72B7059540C28F50
(12.862602) sim 18DAF110#73A3B2C470FDAEA5
(12.883157) sim 123#74D26BBF20AE4999
(12.903644) sim 200#757E23D599DA0213
(12.924261) sim 18FF50E0#76CDB537DED5796B
(12.944686) sim 7E8#7707492D4CEE76A8
(12.965153) sim 123#78B5CD1562B2BC66
(12.985672) sim 18DAF110#794558D3D900CE68
(13.006224) sim 456#7A12BBE32F65A9C1
(13.026711) sim 200#7BA02D0710F01B1B
(13.047323) sim 7E0#7CE33153BDDD874A
(13.067915) sim 200#7DCA381F787E78E8
(13.088515) sim 456#7EAF3C46F372FAE1
(13.109209) sim 18FF50E0#7FB758A388E3C10A
(13.129850) sim 7E8#80DDC6C024CF8CCC
(13.150458) sim 7E0#81CB68AF67B1BD3F
(13.170944) sim 18DAF110#827ED57F1B9DDEBA
(13.191436) sim 18FF50E0#8340A8BDC5643706
(13.212046) sim 456#84957A3C748FC1A4
(13.232763) sim 7E0#85418EBC22DC213B
(13.253242) sim 300#86A354A474BFBDC5
(13.273732) sim 456#872DC6A590E94253
(13.294279) sim 300#8805C214DEFE480F
(13.314826) sim 123#89E951F6FB70DEE3
(13.335450) sim 123#8A3B721D16040B1F
(13.355890) sim 123#8B0FB8A9657B3D3B
(13.376398) sim 18DAF110#8CC3041A54E5EFAE
(13.396977) sim 7E0#8DC595AB1415679E
(13.417409) sim 123#8E88A2CBFAA7EF71
(13.437716) sim 123#8FB831C6DE1307C0
(13.458070) sim 18FF50E0#902E5AC062214501
(13.478449) sim 18FF50E0#91D2E050A81B3B6D
(13.498753) sim 200#9232900331BECCE4
(13.519094) sim 7E0#93FE553B465FA6D9
(13.539527) sim 300#949C8B1AA49B96A6
(13.559887) sim 456#9556A6983993FBD9
(13.580250) sim 18DAF110#960C18C681D89E37
(13.600855) sim 7E8#971E995D3CF25CED
(13.621481) sim 18DAF110#98B840A6CB25781E
(13.642185) sim 18FF50E0#99F3E1C3976DE99E
(13.662697) sim 123#9AF11826095F37F7
(13.683166) sim 123#9BF5EC9C82869D28
(13.703608) sim 300#9C1898A8A7A0EB72
(13.724102) sim 18FF50E0#9D2F509AF362B8DB
(13.744545) sim 7E0#9E4DAC0C481C8682
(13.764915) sim 7E0#9FCEE1E8E2E353F2
(13.785404) sim 200#A01C56E1FC2D0908
(13.806000) sim 200#A14217BA17522540
(13.826558) sim 7E0#A2B7E6F527E54D95
(13.847042) sim 7E8#A359ADE1933D0625
(13.867490) sim 123#A4ADC9B2BEC2CE55
(13.887877) sim 18FF50E0#A558045932CB8F63
(13.908326) sim 7E8#A6935B61326F1982
(13.928824) sim 123#A7D24C162367C25C
(13.949205) sim 18FF50E0#A8F1503F1C47C5F2
(13.969599) sim 7E0#A9006FCE7816429A
(13.990042) sim 18FF50E0#AAA8240426A57CD2
(14.010502) sim 18FF50E0#AB1C6FFD068E6DC2
(14.030983) sim 123#AC81ECAE093E409B
(14.051515) sim 200#AD6C2651E125D416
(14.072070) sim 300#AEBA410FBD83EA01
(14.092496) sim 7E8#AF50550EE2D727D9
(14.112956) sim 7E8#B0B0C22FB78F420D
(14.133402) sim 123#B13A8DF423EDA81D
(14.153817) sim 300#B25A82B3C3780817
(14.174394) sim 7E8#B3F5BFADC81996B2
(14.194813) sim 300#B4AF19E9023139E7
(14.215353) sim 456#B510B5381DE59B3A
(14.235994) sim 7E0#B612D3EBBDDEE927
(14.256472) sim 456#B760D641755E5ABC
(14.277289) sim 200#B8B3F1ECE44F61E3
(14.298011) sim 7E0#B9658DD6A3589624
(14.318440) sim 456#BA3EE8749EF16AB9
(14.338954) sim 7E0#BBE29E39326BF7FD
(14.359403) sim 18FF50E0#BC501A7BBEE108E0
(14.379917) sim 456#BDC542AD5CCE0F8F
(14.400516) sim 18FF50E0#BE49D16639492B5A
(14.421047) sim 7E0#BF5A6D1985E38474
(14.441426) sim 456#C0EBF9436EAC47DC
(14.461948) sim 7E0#C12E7DC65A9C43DE
(14.482428) sim 7E8#C26931C868127A3B
(14.503209) sim 7E8#C38B8C61156C85C9
(14.523706) sim 200#C4C743949B74C546
(14.544040) sim 300#C5CA84C7799FCD2C
(14.564442) sim 7E0#C60DCCEAF922B869
(14.585045) sim 7E8#C71467A5C892F9C9
(14.605733) sim 123#C803293E397BCB37
(14.626307) sim 123#C937284D4231F823
(14.646825) sim 300#CA969A546AF1E2EC
(14.667378) sim 7E8#CBFD5F919A18AECD
(14.687752) sim 7E0#CC9F126C8BFCB5FA
(14.708232) sim 7E0#CD371DDE18FF29CC
(14.728758) sim 123#CED58FFB72B7011B
(14.749173) sim 18DAF110#CF8D8206ACB251F2
(14.769652) sim 7E8#D03FD7852237ED6C
(14.790184) sim 456#D1E46DE4C4DE500E
(14.810663) sim 18FF50E0#D2F20516CF832A73
(14.831019) sim 300#D33DDE12E568C7F5
(14.851347) sim 456#D41EF34B84C522A3
(14.871733) sim 18DAF110#D59C0EFB473A676E
(14.892069) sim 18FF50E0#D6D0263F2CC9168C
(14.912475) sim 300#D783DD1234A26E07
(14.933020) sim 7E8#D8A3C3CDBFE9C367
(14.953369) sim 456#D9D24FF60FC5E269
(14.973749) sim 18FF50E0#DA28D3296A508F9D
(14.994089) sim 18FF50E0#DB0A71D2A456279A
(15.014417) sim 456#DC70189EB0E785C8
(15.035046) sim 18DAF110#DD3F862763A31003
(15.055628) sim 200#DE1EDF1205863695
(15.076084) sim 7E0#DF6A09B644A961D6
(15.096590) sim 18FF50E0#E07A480B50070482
(15.117148) sim 456#E1835C08066A246E
(15.137807) sim 18DAF110#E2165A2A92DCC8FC
(15.158645) sim 200#E3FAEFC7DDE1ACFF
(15.179146) sim 7E0#E4905607CB980311
(15.199696) sim 456#E53AA20E2BE6BB81
(15.220080) sim 18FF50E0#E6DC0C427C4BF0C8
(15.240633) sim 300#E78435F0F9F92FE9
(15.261223) sim 18FF50E0#E843EE63CA0AFA55
(15.282176) sim 123#E91D26BF4A3BD199
(15.302894) sim 300#EA3AC0D8C21E3D62
(15.323318) sim 18FF50E0#EB58D99CB4515857
(15.343645) sim 123#EC6EB85F45828B97
(15.364322) sim 7E0#ED58BE5A9CA5F1B7
(15.384998) sim 456#EEA2FA7E349C8CCF
(15.406087) sim 456#EF8F4FA90DFFB4FD
(15.426680) sim 7E0#F023E793EE5030EE
(15.447168) sim 456#F1E18C659686F72A
(15.467664) sim 18DAF110#F2A13B316EAB1E19
(15.488520) sim 18DAF110#F39E3D2CAEF4D1D0
(15.509127) sim 300#F4A83DD863F68FC9
(15.529801) sim 18FF50E0#F59FE6DE17BC6B72
(15.550376) sim 123#F6A29A08CE811B15
(15.571057) sim 300#F7953D4D6DD74AAF
(15.591494) sim 123#F832B60587646DFB
(15.611902) sim 7E8#F9A6F3CB773F68C9
(15.632331) sim 7E0#FAA8B6C176C01A50
(15.652683) sim 300#FB48CC18724213A1
(15.673134) sim 18FF50E0#FCED4EA93E721731
(15.693548) sim 456#FD3F0DB638696763
(15.714080) sim 200#FE7208AD345E0631
(15.734706) sim 18DAF110#FF304EE9139B32BE
(15.755168) sim 200#001D4ED9A1CC4D65
(15.775669) sim 200#0149E749019CE4B5
(15.796328) sim 18FF50E0#0222FD5B52893064
(15.817034) sim 300#0365AF41EFE2FA71
(15.837585) sim 7E8#049134386116A0E4
(15.858116) sim 18DAF110#05DD4D90EB00E275
(15.878727) sim 123#06B03067B39F5711
(15.899350) sim 300#07D5958244F2C3AF
(15.920042) sim 123#084B282F54D1EF08
(15.940411) sim 456#09136A58514574DD
(15.960825) sim 7E8#0A273226EA4FCFBF
(15.981527) sim 18FF50E0#0B0414148FD1B483
(16.002391) sim 200#0C8C47623E37A6FC
(16.022946) sim 300#0D870DF56951C34B
(16.043546) sim 123#0E6A0FFB82740E2A
(16.064142) sim 18FF50E0#0FAB4EF973488CC4
(16.084741) sim 7E8#10561FBD5D8BD269
(16.105214) sim 18FF50E0#11659FC1C541671E
(16.125655) sim 18FF50E0#123AD7C8BD2DFF57
(16.146180) sim 18DAF110#13ACE92C9D9653C0
(16.166696) sim 7E8#14C706D66AD31E33
(16.187313) sim 18FF50E0#1521AD98B2953271
(16.207919) sim 7E8#16E0DE721B6C40BA
(16.228332) sim 7E0#17B47541D1D01A94
(16.248760) sim 18FF50E0#1892D77E2F729BFE
(16.269384) sim 123#19E18C0F853AF306
(16.290092) sim 7E0#1AD9C9EE3BEE5F9A
(16.310701) sim 18FF50E0#1B53411B3E0F081F
(16.331268) sim 18FF50E0#1C9E5E719187D5D6
(16.352051) sim 7E0#1DDCDE0D048280D9
(16.372718) sim 18FF50E0#1ED3AC8E11C5D694
(16.393391) sim 18DAF110#1F7B3F042A5FF7E6
(16.414093) sim 200#2082940549F9384F
(16.434625) sim 300#21586F05D3285C8C
(16.455127) sim 7E8#22FA8D787B10F833
(16.475497) sim 7E0#2331AD2BC31FCF17
(16.495956) sim 7E8#2463DECED6BD66D5
(16.516526) sim 7E0#25497BACE86901A0
(16.537184) sim 123#260A26C8CA1BEA30
(16.557772) sim 18DAF110#275A660E24213F06
(16.578686) sim 18DAF110#28E9FC6FE3593812
(16.599405) sim 300#29AD83E7E1907D21
(16.620074) sim 7E0#2A41BCEF6605D4E6
(16.640735) sim 300#2BD907B7580757F3
(16.661262) sim 18FF50E0#2C5120C739CCA348
(16.681786) sim 18DAF110#2D12F977E2B2B734
(16.702454) sim 300#2E732300AFA81756
(16.723058) sim 123#2F36102EEFC0EE58
(16.743583) sim 300#306AB97F46A482DA
(16.763955) sim 18FF50E0#31D1BECEDCAA93C5
(16.784503) sim 18FF50E0#329898ACDD2AEC74
(16.805172) sim 300#33AEDAC5A2AF2F08
(16.825632) sim 123#343FA491C1F35821
(16.846199) sim 200#35445F5B9FBEAAF9
(16.866770) sim 18FF50E0#3609A12A2825A9A2
(16.887498) sim 7E8#37A04D49F069D3AC
(16.908077) sim 18FF50E0#38FDACB9DBEC59AC
(16.928678) sim 123#39A248FD093F484C
(16.949327) sim 7E8#3A9B34120F7BD118
(16.970190) sim 200#3B8BC5EB351D5879
(16.990809) sim 18FF50E0#3C87F6F5AC1E7FF5
(17.011339) sim 7E8#3D1939A7FC073375
(17.031941) sim 18DAF110#3EA59871A4A68670
(17.052509) sim 123#3F80A961A4D53238
(17.073102) sim 7E0#40027DEE1FFC3A3B
(17.093572) sim 7E0#41AEF35F724D0692
(17.114084) sim 7E0#4244FC809182A342
(17.134520) sim 18DAF110#43F0E4A0238BA772
(17.155197) sim 300#44848540DB22AE7D
(17.175804) sim 7E0#45C1AC33FF874954
(17.196729) sim 123#467CA5443DE2D714
(17.217459) sim 300#476F022ED4A47614
(17.238128) sim 123#4873AC5000A6C126
(17.258590) sim 7E8#493CD7163E079197
(17.278994) sim 456#4A62B85294D29C45
(17.299655) sim 7E8#4B5FA7FED61A3798
(17.320349) sim 7E8#4C202E3E80C5F28B
(17.340960) sim 7E8#4DBB3BD15216EB0F
(17.361580) sim 300#4EA72F6031B583F7
(17.382278) sim 18FF50E0#4F21AD78CDFA9BFB
(17.402859) sim 123#507771EF19EA6766
(17.423539) sim 456#51919C43B037C1E4
(17.443884) sim 18FF50E0#5236584E5FD9E336
(17.464178) sim 300#535630B7DEF007DA
(17.484839) sim 456#549008A67D0796D1
(17.505952) sim 123#55885C6BDF0FCE43
(17.526619) sim 18FF50E0#560CEC4952E09324
(17.547216) sim 200#5792B21783F2C318
(17.567677) sim 456#5811F67C0AC5E897
(17.588217) sim 18FF50E0#5997771C74DBC51A
(17.608776) sim 18FF50E0#5A10639D75461983
(17.629344) sim 200#5BB75012B0C3A539
(17.649854) sim 456#5CFC28DC75E89D51
(17.670573) sim 123#5D26BCB14D423560
(17.691062) sim 200#5E0159C937FA070C
(17.711493) sim 7E0#5F3E13BEAD882104
(17.731973) sim 18FF50E0#60F4CF71CD72E0F0
(17.752442) sim 300#61A72CE492912033
(17.772980) sim 18FF50E0#6258F47312649BD6
(17.793388) sim 300#631789F48C61EBF5
(17.813865) sim 18DAF110#64C3725C62413409
(17.834367) sim 7E0#652E26EB59A44F0B
(17.854788) sim 123#66DFC18F3F22CDBC
(17.875175) sim 18FF50E0#678F4058D0BFECC3
(17.895534) sim 7E0#687639FC1E0B5B4C
(17.915943) sim 18DAF110#690EA8F446C3E90F
(17.936338) sim 7E0#6AD9C6FBFF3A5E5B
(17.956773) sim 7E0#6B7D5FE781C3D442
(17.977257) sim 123#6CEBC1531A02BB2D
(17.997653) sim 7E0#6D459C7E0D6012FA
(18.018199) sim 18DAF110#6E856B9F7EDBF8BB
(18.038703) sim 300#6FEE5B014C123D06
(18.059165) sim 7E0#704FA71FEA06BAA9
(18.079509) sim 456#717704AAAC4D9972
(18.100245) sim 456#727EC44E5FF3EF7C
(18.120857) sim 300#73372E4C6FE818D3
(18.141401) sim 18DAF110#749E03F96A15635B
(18.161829) sim 18DAF110#759980229E02E01E
(18.182323) sim 300#76A356A21D621FDC
(18.202736) sim 300#774D9CF53ECD5C3A
(18.223084) sim 7E0#788E088382837109
(18.243566) sim 123#799D88AB22E39007
(18.263969) sim 123#7A37C46959A37F17
(18.284616) sim 18FF50E0#7BFDFE5891D6E985
(18.305409) sim 123#7C65AA42A0B3C386
(18.326127) sim 18FF50E0#7D7568AFC9F3873E
(18.346720) sim 18FF50E0#7EC3BD5CC3EC0C58
(18.367174) sim 7E8#7F73F6F9B4652DA4
(18.387746) sim 300#80F19DABC377EE80
(18.408575) sim 123#81DD6F069CE4E4DD
(18.429018) sim 200#82D268F6F18AE243
(18.449652) sim 18DAF110#837E323B6DB1D33F
(18.470203) sim 456#8487AFC2050060D0
(18.490719) sim 200#856C46CFD505441C
(18.511404) sim 18FF50E0#86C31647422BD1EE
(18.532191) sim 300#876F64CB76C4FD9F
(18.552833) sim 18FF50E0#88C6322076BE1E32
(18.573554) sim 7E0#899E59FBAB54C2EF
(18.594215) sim 18FF50E0#8A84F80B4E479D5E
(18.614572) sim 18FF50E0#8B0F86568A194373
(18.635022) sim 300#8CC839FD820D8A65
(18.655536) sim 7E8#8D3A2352CC33C10B
(18.675973) sim 18FF50E0#8E18B2F6C9DCA140
(18.696602) sim 7E8#8F117A5860C2DF0B
(18.717288) sim 7E0#90084641551E61A0
(18.737792) sim 18FF50E0#91651A8D4BE32770
(18.758383) sim 7E0#921E380F1CEFE312
(18.778931) sim 7E0#930F4332BF376C90
(18.799479) sim 200#947B82C28CCD9FEC
(18.819985) sim 300#95301AB334752721
(18.840526) sim 18FF50E0#96F7FE6CC0364E87
(18.861066) sim 18DAF110#9744387A1B1A50D6
(18.881628) sim 7E0#986178E998605498
(18.902078) sim 123#99BDA8F73BC80713
(18.922542) sim 200#9AB378F943727593
(18.942930) sim 7E0#9BE10A9F70BCE402
(18.963543) sim 7E0#9CCA41289A5F9D06
(18.984051) sim 456#9D693050475ADAE3
(19.004528) sim 18FF50E0#9EBA3D04B58D1D58
(19.024918) sim 7E0#9F36C6DAB13129DF
(19.045315) sim 18DAF110#A031564BE9335DE9
(19.065660) sim 300#A101E75C2187CD8C
(19.086043) sim 300#A21620B140F3D5B4
(19.106561) sim 200#A3C0798414DC2258
(19.127235) sim 18FF50E0#A4A15DCD6F7DE823
(19.147714) sim 18FF50E0#A55C6FF8F63BDDA5
(19.168324) sim 200#A6E46F9028A493EC
(19.188900) sim 300#A73A14A1E5078908
(19.209424) sim 18FF50E0#A8ABA18A47530AE5
(19.230029) sim 200#A91E0185663A9D0D
(19.250418) sim 123#AA5B41B331AE92F3
(19.270760) sim 7E8#ABDE7883B5AA6FA0
(19.291418) sim 18DAF110#ACBFD14170C47991
(19.311880) sim 7E0#AD2C63F0B4574941
(19.332287) sim 123#AEDEAF3CEE6FC88D
(19.352882) sim 300#AF3C3D0F7B3E5011
(19.373256) sim 7E8#B0B5990DA3F3224D
(19.393780) sim 18DAF110#B1491C0268433805
(19.414451) sim 456#B29232E8878C22B4
(19.434842) sim 7E8#B350D9D3D2C03339
(19.455467) sim 18FF50E0#B44164CEBE443E3B
(19.476133) sim 18FF50E0#B546245DACA7600E
(19.496783) sim 18DAF110#B6F968B3CFB7E506
(19.517478) sim 456#B745D24C6AB3E1B5
(19.538105) sim 456#B8837157D6F7C0D5
(19.558710) sim 123#B98CEE0F49D27D6B
(19.579387) sim 18FF50E0#BAB9BDFD163B6CC3
(19.600032) sim 456#BB175C40DD8C105F
(19.620704) sim 123#BCD30B17553F86ED
(19.641057) sim 300#BD0E196B672D0173
(19.661633) sim 7E8#BE08EFD19F887463
(19.682094) sim 7E0#BFFB9EC0D1895CED
(19.702583) sim 456#C0A0C1114D6E8F72
(19.723081) sim 18DAF110#C14A09661A270BDF
(19.743465) sim 7E8#C24B0CA0DAAB11B0
(19.764013) sim 300#C34AAB0A5CDE795E
(19.784677) sim 18FF50E0#C4A4E3DA5B7AEE89
(19.805365) sim 456#C578E67A0658239C
(19.826147) sim 300#C643EB4F22C912FE
(19.846658) sim 123#C73512ECE7177BD6
(19.867335) sim 7E8#C802B8D309696BA1
(19.887931) sim 200#C96D861287752C91
(19.908520) sim 7E8#CA10123DD74CB18B
(19.929112) sim 7E0#CBF150DA853084CE
(19.949650) sim 200#CC4F4DD79D569864
(19.969985) sim 7E8#CD6F0D1AEA774645
(19.990351) sim 200#CE10EF9267E883DD
(20.010713) sim 200#CFE3DBC25B127E3A
(20.031323) sim 456#D0EBE86975AEA761
(20.051819) sim 123#D1EF9CF3BC34357B
(20.072118) sim 18DAF110#D23CCE0C1ABAAC92
(20.092469) sim 456#D30CE6D8F3C2B14E
(20.112954) sim 456#D4CD6A9CE03F39FB
(20.133350) sim 300#D5A6384008793EA8
(20.153784) sim 200#D6E8B71A1C73795C
(20.174512) sim 300#D7C96D6C501A46B4
(20.195118) sim 18FF50E0#D815913DC8F640C8
(20.215576) sim 18DAF110#D9224EE127D503F3
(20.236150) sim 7E8#DABB7CD1B13BE566
(20.256586) sim 200#DB008AE068798780
(20.277323) sim 7E0#DC1837557AD04607
(20.297868) sim 200#DD7E7E9DBF868257
(20.318526) sim 456#DE70952F636E9EF5
(20.339171) sim 18DAF110#DF47CEA8BDD3AE4A
(20.359765) sim 300#E0CC63E1084C478D
(20.380424) sim 18FF50E0#E1B5B7C074A65C93
(20.401127) sim 123#E2FE87BAECAF5747
(20.421724) sim 18FF50E0#E37445A626E20914
(20.442379) sim 18FF50E0#E471570B3F0F2F6D
(20.471784) sim 7E0#E5FBEAEEEDFD4E1A
(20.492491) sim 7E0#E60A157D22B436F1
(20.513094) sim 200#E7BFEDF9DEAE601F
(20.533750) sim 18FF50E0#E8562D8C62BF1A7A
(20.554392) sim 7E0#E938E58D27EF2755
(20.575026) sim 7E0#EA705377BE70D1AA
(20.595582) sim 7E8#EBAEA6970C880582
(20.616047) sim 18DAF110#ECD7C218ABC0FC4C
(20.636415) sim 18DAF110#ED4CB8F7629898A2
(20.656809) sim 300#EEC62CA7764E9EC3
(20.677339) sim 7E8#EF90CCE80E2E4DD2
(20.697874) sim 7E0#F0D4ADB19456C38E
(20.718500) sim 300#F10B497BB1325539
(20.739042) sim 18FF50E0#F21E8F2A9FC60847
(20.759771) sim 456#F343470032C79413
(20.780354) sim 300#F4918DE0EF7122C0
(20.800900) sim 200#F58D6DE34B46279A
(20.821406) sim 123#F651A56599F4DDB9
(20.841813) sim 7E0#F7B396DD52EB5BBA
(20.862334) sim 18FF50E0#F867448145657BE9
(20.882705) sim 7E0#F9E1C86E106C0C6A
(20.903104) sim 123#FA9973629EE6110D
(20.923523) sim 7E0#FB7887AD49EE7AE0
(20.943941) sim 7E8#FC7BC98162D61AB9
(20.964494) sim 7E0#FD3D1365E6F62C92
(20.984896) sim 7E0#FEC174FF4B03A568
(21.005281) sim 300#FF4B6E33EFA348D6
(21.025668) sim 7E8#00470D934EA2B57C
(21.046104) sim 18FF50E0#0112978F09EA917A
(21.066503) sim 300#0246CDDA604AF869
(21.086873) sim 200#03D73EBBAC123FF9
(21.107224) sim 456#04ED3967625CB98E
(21.121519) sim 7E0#05D212967E3A8102
(21.141859) sim 18DAF110#0659E075BD40FB58
(21.162181) sim 7E0#07D8D16DDD76A32A
(21.182584) sim 200#0881423C67109F25
(21.203174) sim 200#09D61B20D63AD19D
(21.223610) sim 7E8#0A3F0DDF3F2969A8
(21.244254) sim 7E8#0BCBB0B17F87EB39
(21.264611) sim 200#0CCE34F6B9C83A24
(21.285093) sim 7E0#0D6E69CB3274410F
(21.305699) sim 456#0E93AB00C7CDCE8D
(21.326358) sim 456#0F0A91CB9EB812B2
(21.347117) sim 123#10BF97F5AC370B6F
(21.367675) sim 200#11310D075FF06819
(21.388362) sim 200#121D17E2C47945BE
(21.408855) sim 18DAF110#132B610BDE7C62A4
(21.429426) sim 7E8#14C46C46695FECAF
(21.450891) sim 200#15C6D40594D308E8
(21.471499) sim 7E0#160B9E9027E2CAE6
(21.492120) sim 200#1765D6E08B412F49
(21.512666) sim 456#1807FA53296FB646
(21.533391) sim 18DAF110#1977C9CCFB376B2E
(21.553999) sim 18FF50E0#1AF998B7B799070C
(21.574575) sim 18FF50E0#1B599740AC9D7880
(21.595174) sim 300#1C5C08BED8D93E3A
(21.615782) sim 18DAF110#1D8E19683F0B511E
(21.636473) sim 7E0#1E8849B3C0FFB5F7
(21.657113) sim 456#1F3E58C94F602DD7
(21.677666) sim 7E8#205D83A27738989C
(21.698246) sim 200#21350BC0E88B28F2
(21.718787) sim 18FF50E0#22AA84D33D527D23
(21.739294) sim 123#23EDBF112C3142B4
(21.759701) sim 18DAF110#24027CDA817D61DA
(21.780090) sim 18FF50E0#25FF9FDB2BA13618
(21.800725) sim 300#26FADB538CD94136
(21.821403) sim 18DAF110#279FFE2B590FA5BB
(21.841952) sim 456#28D6FABF988D095C
(21.862447) sim 123#296CA889D4D9D08A
(21.883123) sim 18FF50E0#2AED1154D6AB583D
(21.903682) sim 300#2B63717140353816
(21.924254) sim 18FF50E0#2CCCC53A90D16353
(21.944690) sim 123#2D1F6E0BD078BC88
(21.965231) sim 200#2E5886A5FEAA9573
(21.985887) sim 7E0#2F83DC4C1F3DBB71
(22.006442) sim 7E0#3051769CBFAE9DD6
(22.026898) sim 200#3153842C635BEAE1
(22.047204) sim 7E0#32F331E4A4A9FFAE
(22.067532) sim 456#33A6970475E8081A
(22.087848) sim 456#34BFA8AD990AB85E
(22.108135) sim 300#354AAE09CD689E5A
(22.128336) sim 200#36E6090B2A96D408
(22.148548) sim 300#374ADE1F5C4D4E2B
(22.168748) sim 200#38D86321951883CC
(22.188977) sim 7E0#39890CF6AA50EA56
(22.209187) sim 18DAF110#3A26429FE192F4F2
(22.229444) sim 18FF50E0#3BBC3BE0846F7079
(22.249694) sim 200#3C87810DF46FC256
(22.269925) sim 456#3D977706F049E826
(22.290178) sim 123#3EC481A65C977D93
(22.310418) sim 456#3F168D53B8BE3817
(22.330670) sim 123#40366FF5327C3052
(22.351005) sim 456#4163BCC17C97D2DC
(22.371322) sim 18FF50E0#421A4040E30BA28B
(22.391633) sim 18DAF110#4308EB068D560919
(22.411982) sim 18FF50E0#44E3CE83466D731D
(22.432297) sim 18FF50E0#45B88D0D3DE6880D
(22.452589) sim 18FF50E0#462DF1410F59CA66
(22.472904) sim 300#47EBD91C05C7B35B
(22.493167) sim 7E8#484341F4DB3846BF
(22.513567) sim 7E0#4938A423EC4B5256
(22.534109) sim 18FF50E0#4AE206A1A3FCDB94
(22.554807) sim 456#4BD05F3ACDCF9427
(22.575456) sim 7E0#4C79F6EA2F3DBCB4
(22.596226) sim 18DAF110#4DC92F9B624454DF
(22.616989) sim 123#4E3C1D08D37FBE23
(22.637500) sim 7E8#4F1DCB4DCCFD6D13
(22.657904) sim 300#50F27DF980182328
(22.678382) sim 7E0#51285F4D3C37BBC3
(22.698948) sim 200#52E300D66ADF3251
(22.719538) sim 18FF50E0#53E684473CA44054
(22.739947) sim 300#5485B5FEF852967F
(22.760426) sim 123#557C00C956D899AC
(22.780874) sim 456#56E9CD0994A9A581
(22.801409) sim 456#57528425AB4DD767
(22.822015) sim 18DAF110#58AB748CBDAC8A07
(22.842679) sim 18FF50E0#594E63EAE2FF2925
(22.863430) sim 7E8#5A727FF8384253C5
(22.884084) sim 123#5BFF5903071B13BC
(22.905024) sim 300#5C78C32B602C8D97
(22.925544) sim 123#5D75F923E22DAB57
(22.946094) sim 300#5ED0AE265D8C7AE1
(22.966831) sim 200#5FC0AEFEF49B834A
(22.987384) sim 456#60526A4161901EF2
(23.008030) sim 18FF50E0#61C7788E4ACF576E
(23.028790) sim 7E8#62CCC72DCCC1CD13
(23.049460) sim 7E8#6365E9A5E09EACE9
(23.069866) sim 200#646AD2EF0C6C87EC
(23.090446) sim 7E0#65C09724BDEA92C6
(23.110893) sim 200#660A1DD6723CADF7
(23.131509) sim 200#67A47806F6433BBB
(23.152036) sim 18FF50E0#68F00C2E977F4DFD
(23.172682) sim 18DAF110#6972D15C6C5B5611
(23.193460) sim 18DAF110#6AAB086605821471
(23.214234) sim 7E0#6BB31E9F1560798A
(23.234871) sim 7E8#6C51B41ADC1D2B61
(23.255524) sim 123#6D067F7F973AF6D6
(23.276191) sim 456#6E6FCE9B369C5190
(23.297009) sim 7E8#6F4781F27421D916
(23.317694) sim 7E8#70DED256375BF4C0
(23.338353) sim 300#71C8FC152D7D257A
(23.358919) sim 7E8#724C02C08B766452
(23.379486) sim 7E8#730A18DB1BB41780
(23.400359) sim 18DAF110#74B5F0CBA9C06865
(23.420925) sim 18DAF110#750685156B62FD8E
(23.441596) sim 300#76D7FF6621865D8A
(23.462309) sim 18DAF110#770FDD6364B664B1
(23.482892) sim 200#78F3B2F6F14BC8F2
(23.503637) sim 18DAF110#79BDFD5498FB6043
(23.524317) sim 300#7AD7741C451F9B0B
(23.544842) sim 18FF50E0#7B48529C74069EF3
(23.565200) sim 18FF50E0#7C6C80B4AE54B46D
(23.585573) sim 123#7D75E757C77A9D8E
(23.605972) sim 123#7E3EFB5491412F05
(23.626527) sim 7E8#7F1FF92B87CD56DA
(23.647168) sim 123#808B9A81C88E263D
(23.667580) sim 7E0#818216C1EFA09FB0
(23.688135) sim 7E0#8248F75CA0188427
(23.708645) sim 18FF50E0#83ABCE2FE08B4F1E
(23.729110) sim 456#846CF2B291A58EB2
(23.749722) sim 18DAF110#853F763789987777
(23.770223) sim 300#860344428BAFE6F7
(23.790722) sim 7E0#878435B5E5C68F62
(23.811346) sim 18FF50E0#882B3A6DB0AFBFB7
(23.831860) sim 18DAF110#8957FFC98E7AF14B
(23.852571) sim 18DAF110#8A70F6F0BAACA8A4
(23.873157) sim 200#8B1982B3123F355D
(23.893805) sim 123#8C8EE9B58B167914
(23.914615) sim 123#8DEFC33DBA3E6E9E
(23.935330) sim 456#8EDC95B12B82631F
(23.956109) sim 7E0#8F6973B6947B16D4
(23.976767) sim 300#90907CCA59130117
(23.997348) sim 7E0#91A783BE73851E8F
(24.018027) sim 18DAF110#92C70108014B701D
(24.038528) sim 300#93E6B8D2C8ACA5F8
(24.059117) sim 7E0#949CFA9F778FDA52
(24.079757) sim 18FF50E0#95D3181C4EE18D1A
(24.100504) sim 456#96DD5BEFB4D0533A
(24.121091) sim 7E8#97053FB53E0E3E77
(24.141850) sim 456#983E92AF88F7B508
(24.162591) sim 7E8#9906D0E7CC5E4485
(24.183452) sim 300#9AD8DEDE1EED36FE
(24.204323) sim 123#9B97264EA7F57070
(24.225026) sim 200#9C807A131E5B389C
(24.245665) sim 456#9D9C1CEE7DFD1DA7
(24.266695) sim 7E8#9E49A75E6590BB83
(24.287459) sim 456#9F5B20F4855D25E3
(24.308148) sim 200#A0197399FA393BF7
(24.328882) sim 7E0#A1B1B83108CC692E
(24.349568) sim 18FF50E0#A230666EBBBD184D
(24.370106) sim 7E0#A34DA47E1C84C04B
(24.390635) sim 200#A4153F1892A1D9AE
(24.411264) sim 300#A5E20D33608A6CB2
(24.432096) sim 7E8#A6EF6D18A2E23383
(24.452874) sim 456#A78569A1BAE0CA63
(24.473535) sim 7E0#A8EA8E51383EF847
(24.494268) sim 7E0#A9834CC3E2D35DD1
(24.514722) sim 200#AA5902C5B72700A9
(24.535228) sim 456#ABC1A4F2643F7E72
(24.556021) sim 18DAF110#AC76CF2808F24682
(24.576513) sim 200#AD58690D8BE9C0C1
(24.597226) sim 123#AE76AB2AC2C6D647
(24.617799) sim 200#AF4F826B6166F57E
(24.638442) sim 7E8#B02334A8B17C9A72
(24.659102) sim 123#B11FD86038CFF90D
(24.679655) sim 123#B2C14D6BF511F6C1
(24.700037) sim 123#B3ED46B7CE8AC47D
(24.720444) sim 7E0#B48157BD75EAA10B
(24.740884) sim 7E8#B53C5B1AB65E4D56
(24.761362) sim 7E0#B6E1F87F74B771E2
(24.781925) sim 200#B7CBB097DBD3CF03
(24.802454) sim 7E8#B8ECB5E3AF277188
(24.822899) sim 123#B933A46A5554D544
(24.843389) sim 200#BA66914DEEDCEA3F
(24.864165) sim 123#BB36D43E87A9FB01
(24.885029) sim 18DAF110#BC5772B9B53C06B7
(24.905731) sim 7E0#BDECD28AB27798EE
(24.926412) sim 7E8#BEF5B8C8CF9FF66F
(24.947123) sim 300#BF1AA47A537ECAA1
(24.967566) sim 18DAF110#C010F5B77A848C49
(24.987993) sim 123#C1EADA98577446CA
(25.008261) sim 18DAF110#C26AEAA9661F795D
(25.028526) sim 123#C3A0F99C7889AD36
(25.048959) sim 300#C47FF34B4BB08BBE
(25.069519) sim 456#C56AFAEF3F8950BB
(25.089982) sim 456#C63000340976837F
(25.110434) sim 300#C7BC602BE7041816
(25.130913) sim 300#C86AC7CA458F8B37
(25.151497) sim 200#C941FCE35310E96A
(25.172197) sim 456#CA304F3B244E215A
(25.192852) sim 123#CBE361EFF452355E
(25.213445) sim 7E0#CCF6B792228D986D
(25.234067) sim 123#CDA8AC7CB6C30FC9
(25.254686) sim 7E8#CE48407A68477C42
(25.275177) sim 123#CF5063EBAA12B0F3
(25.296045) sim 200#D059A5C35FCD3F43
(25.316485) sim 18FF50E0#D12AEDAEBAD477A2
(25.337147) sim 123#D25FE2E42F485F86
(25.357719) sim 200#D36BD2EBCFDF5308
(25.378280) sim 200#D414910EDF44866D
(25.398768) sim 18FF50E0#D56DFB84889F8004
(25.419197) sim 200#D636637F9146485D
(25.439538) sim 7E0#D7A46DEF6D356177
(25.460313) sim 7E8#D8DA946C1396FB02
(25.480853) sim 18FF50E0#D903392CD4852B45
(25.501234) sim 456#DA3A7D0410186508
(25.521626) sim 7E8#DB647DAB3746ADF9
(25.541954) sim 7E8#DC69CFEBA2CE1562
(25.562329) sim 123#DD00EBC92D4D7A81
(25.582801) sim 18FF50E0#DEAF9978EA1C3F25
(25.603266) sim 200#DF5860F7F4912034
(25.623720) sim 456#E0EFAA8D890D2DE8
(25.644230) sim 7E8#E1197E85A8D8205A
(25.664644) sim 456#E25DC44289FB5C72
(25.685065) sim 7E0#E319E3491C794453
(25.705555) sim 300#E477116D4C98234C
(25.726135) sim 7E0#E5BF980DB49F4159
(25.746614) sim 7E8#E661C2084A6B8CB4
(25.767008) sim 456#E72DB049D3BF6FFC
(25.787613) sim 7E8#E8E464D268C970C9
(25.808216) sim 200#E95EE0CBD8D85558
(25.828790) sim 18DAF110#EA9797129DEC1E61
(25.849337) sim 123#EB2BE4BC68914875
(25.869880) sim 300#ECE208EFC1C94CBD
(25.890285) sim 300#EDA6A2E58F95F25F
(25.910643) sim 18FF50E0#EE583CC31D8C1158
(25.931247) sim 7E0#EF0D74430E90E28E
(25.951714) sim 7E0#F0BA40B9AD423BE7
(25.972340) sim 456#F16E704CC3A3B5A0
(25.992869) sim 123#F23A647537D0F8E2
(26.013530) sim 18FF50E0#F3BA773292A2670E
(26.034039) sim 456#F40823409CDE8448
(26.054904) sim 18FF50E0#F52532BAFC08E705
(26.075446) sim 7E8#F6DDAA59780B8EC8
(26.096070) sim 18FF50E0#F7468F023F84437B
(26.116793) sim 18FF50E0#F894806B95361917
(26.137288) sim 456#F9F282D8CC23103D
(26.157764) sim 300#FA5247E6525383FA
(26.178457) sim 7E0#FB052E105F452449
(26.199039) sim 7E0#FC720F7C5B808A8F
(26.219496) sim 456#FDE1B00B5107880C
(26.239799) sim 7E0#FE3B5B7DEDD56B88
(26.260182) sim 200#FFCDE1C401CE7480
(26.280660) sim 7E0#00AE357F52113FB6
(26.301287) sim 7E8#01B465057CEDA871
(26.322071) sim 456#024A8D4EBA70E2E7
(26.342722) sim 456#03F756A23573D9EF
(26.363291) sim 200#04C8E538FC8C0A46
(26.383997) sim 456#05F3F3A60A65B2A5
(26.404513) sim 7E0#0697DF6200F8D68F
(26.425129) sim 123#076A625006FBDADF
(26.445694) sim 456#08654DF0BB331B66
(26.466218) sim 18FF50E0#097B9DEDF7459505
(26.486721) sim 200#0A7C0B92F493B4DE
(26.507273) sim 18DAF110#0BC1ABDCF2E3B8BC
(26.527858) sim 7E8#0C76AC13E230C4ED
(26.548487) sim 300#0D26E37FAD682A07
(26.569153) sim 456#0E9AD2363E807E25
(26.589805) sim 200#0FB4D9962D416DED
(26.610492) sim 18FF50E0#1056D87F598AC2A8
(26.631007) sim 200#114A1BFD330F90DD
(26.651630) sim 456#12892021EE9EC43C
(26.672187) sim 123#13BB2B026050684B
(26.692731) sim 456#14164F7FA910A26D
(26.713338) sim 123#15067F38E57FF40E
(26.733986) sim 123#16577A2B634DA0D9
(26.754599) sim 456#17CFBAE294589533
(26.775194) sim 200#18D6600A4A2C3F22
(26.795837) sim 7E0#198430A1198DB061
(26.816480) sim 456#1A29CF67FD005FB5
(26.837076) sim 7E8#1B7CA5DDB9A05118
(26.857644) sim 456#1C495BE5689F1B0D
(26.878253) sim 7E0#1D33EA572FF702CE
(26.898673) sim 300#1E4D5E0C5C4C0975
(26.919116) sim 18FF50E0#1F19AD8DA25BB622
(26.939701) sim 7E0#20FC0983894337AB
(26.960261) sim 18DAF110#21016E93094AF065
(26.980869) sim 300#2258F6324ED7870B
(27.001436) sim 300#23DD25534B0B5C34
(27.021980) sim 200#2496264413CADBC6
(27.042487) sim 7E0#25742E9F52223738
(27.063088) sim 456#266A3DCDEDFFBF51
(27.083613) sim 7E0#275A4A3A49900942
(27.104223) sim 123#280F97F584C6843F
(27.124835) sim 456#2915213F3A04EAD1
(27.145324) sim 18FF50E0#2A9AE5F8E7B63D24
(27.165971) sim 123#2B53BFC2DE89040A
(27.186514) sim 7E8#2CB9EFFAC06D1D16
(27.207105) sim 7E8#2D3C5ADD2FB5F58C
(27.227598) sim 123#2EC9199D6E3B6D6C
(27.248173) sim 7E8#2F51E28C0A767FCA
(27.268680) sim 18FF50E0#303DE40A87884A4E
(27.289302) sim 456#311B5A2B77F69B5E
(27.309806) sim 123#32C48475C29F6A6C
(27.330413) sim 200#33DE9A7CF43A9CA9
(27.350988) sim 123#34C1B4D9A7CF4584
(27.371403) sim 456#3587357ED168E1A2
(27.392402) sim 18DAF110#36B5F46D85CA16C6
(27.412978) sim 7E0#377443C8C8340043
(27.434141) sim 456#380CF522B5B24590
(27.454809) sim 300#39C5F2F0DD2ADAB9
(27.475453) sim 300#3A8925CF253A0457
(27.495865) sim 300#3B455E2C730AA764
(27.516536) sim 300#3CE993EB2C42184E
(27.536945) sim 300#3DBF882FDC4F0F0C
(27.557439) sim 123#3E101D95263986C2
(27.578133) sim 7E8#3F14B555075A959F
(27.599016) sim 7E8#403C98B0FFCE4CE5
(27.619695) sim 456#4154EAEC53E90244
(27.640150) sim 123#42051FBEC1858F95
(27.660745) sim 18DAF110#4350DC9B9F43D994
(27.681241) sim 456#441D558961C2D7CE
(27.701696) sim 123#45FA0935A11E1F7C
(27.751260) sim 123#46ECECBDF3B2383F
(27.771767) sim 7E0#479FC1C6DD5DB849
(27.792547) sim 300#48DBABEA1304227B
(27.813220) sim 456#496F6CCE2EC44061
(27.833719) sim 7E0#4A6C3B4A748AD21C
(27.854262) sim 200#4B0A26603FD2F775
(27.874831) sim 7E0#4C8ECFA6A217D5BF
(27.895376) sim 300#4DFB3488A6CABAE0
(27.916009) sim 300#4EA58DA0FE854149
(27.936599) sim 300#4F4E00A8D06BC001
(27.957500) sim 7E8#50D9A1FC03F90C1F
(27.977946) sim 7E0#5111CD260D8DCE20
(27.998314) sim 456#52E4A73CE35C8BBD
(28.018753) sim 7E8#53ECA2CA4A7B1AB0
(28.039338) sim 200#545854BB6FC7D913
(28.060004) sim 456#55CD31C118717D2B
(28.080441) sim 200#563AADAE1C6EB3CD
(28.100850) sim 7E8#57F410931C6BF37A
(28.121465) sim 7E0#5845BE827AF6560C
(28.141906) sim 18DAF110#59EFE6A17047439C
(28.162332) sim 18DAF110#5A4D4302119EA33D
(28.182850) sim 200#5BCC8117BF2A7836
(28.203354) sim 7E8#5C686625E440D73E
(28.223864) sim 18DAF110#5DA7FFE46D633B5B
(28.244330) sim 300#5E5D06B9A2F5E864
(28.264795) sim 456#5F4148D5F4F0DB67
(28.285314) sim 123#60DF2C31188D059B
(28.305823) sim 123#61E1DCB45D15C36C
(28.326292) sim 18DAF110#6263634196CBA4CF
(28.346765) sim 123#639A62A91257B02C
(28.367149) sim 123#645863E98C0AF0B1
(28.387587) sim 123#65D352A7CD041CB0
(28.408107) sim 123#66B709BBD366757F
(28.428576) sim 200#673453671803DF50
(28.449029) sim 7E8#681146B3FE8297A3
(28.469536) sim 456#6912CF94E286B50C
(28.490127) sim 18FF50E0#6A5C36484083ECCB
(28.510870) sim 123#6B8C0F7706F52E43
(28.531465) sim 18FF50E0#6CA222FC25C0D03A
(28.551822) sim 200#6D91BF4F7C03CC7E
(28.572255) sim 200#6E9A06CD3CC1547D
(28.592665) sim 7E8#6F6834BAEA1BC9D1
(28.613099) sim 123#70D609D22B2F4A6D
(28.633538) sim 7E0#7144651E7CEE47A6
(28.653999) sim 18DAF110#72B856ED1938EDB7
(28.674544) sim 7E8#736D8151C397AFC8
(28.695074) sim 300#74A85C521EE88E8B
(28.715564) sim 456#750B717D3064121A
(28.736075) sim 7E0#76313066FF1E1886
(28.756514) sim 123#7790437D441B1D6F
(28.777041) sim 300#78B96B0E9D842E08
(28.797782) sim 456#79F44F33D562706B
(28.818335) sim 18DAF110#7A3F36A8E990E6E1
(28.839006) sim 7E8#7BBB8E32669807A6
(28.859674) sim 300#7C10961815F62FD3
(28.880527) sim 200#7D1438A521D4D74E
(28.901110) sim 300#7EA08DB3B47BA697
(28.921716) sim 7E0#7F8FD8EB3213F24D
(28.942215) sim 456#8054DC5E7D331A27
(28.962738) sim 456#81A8ED6BE2E02961
(28.983267) sim 300#82AEB3C6EF754966
(29.003663) sim 18DAF110#83F637D928AD351C
(29.024173) sim 7E8#843BB10B60B0DFC2
(29.044750) sim 18DAF110#8520DFC1E21D60F3
(29.065381) sim 123#867A360436FA7F30
(29.085988) sim 7E0#87039BBC4D834F60
(29.106383) sim 7E0#883014BE91631E4C
(29.126699) sim 200#89671A7D40734828
(29.147080) sim 18DAF110#8A8960979C6A0ADC
(29.167613) sim 300#8B9B91DF25DDA20D
(29.188038) sim 456#8C3C07E4AEC19AF5
(29.208594) sim 123#8D45F23E272C51BD
(29.228986) sim 18FF50E0#8E1B78B646FB64EF
(29.249521) sim 18FF50E0#8F18B09D56022478
(29.270144) sim 18FF50E0#90C5141AB798E4B2
(29.290605) sim 456#917341C24921CEAD
(29.311088) sim 300#92F44C9404B5B35C
(29.331470) sim 18DAF110#9357DE411F6B4C15
(29.351914) sim 18DAF110#9422A1838B39E14A
(29.372438) sim 18FF50E0#95BE209837CFEEEE
(29.392953) sim 18DAF110#969075578F10BDE9
(29.413468) sim 456#97730E8D400CC6AF
(29.433892) sim 123#981A064FC88A677D
(29.454376) sim 7E0#99BDA6409B2A0B50
(29.474986) sim 300#9AC8A275BF6407BA
(29.495478) sim 7E8#9B105A722D278155
(29.516048) sim 300#9CBF5606546A6C85
(29.536469) sim 456#9DF13214B8A2751C
(29.556840) sim 456#9E9F9A73A12D7DAE
(29.577325) sim 200#9FAE52060FE74D64
(29.597986) sim 7E8#A0A5DC241852E9B1
(29.618443) sim 300#A19C4CCE564C46B9
(29.638851) sim 18FF50E0#A28D67EF600ADE30
(29.659247) sim 7E8#A3BB4B6CA2584FF9
(29.679787) sim 200#A46BACF0FF177ADA
(29.700326) sim 18DAF110#A52706866A332A19
(29.720767) sim 123#A60C60731D00432F
(29.741412) sim 7E0#A72DAD423214F071
(29.761865) sim 200#A849E26FD7B2307E
(29.782294) sim 456#A9A2457A5604061C
(29.803210) sim 18FF50E0#AA30ADF6F49BFC8F
(29.823814) sim 300#ABC9586D08DC7D29
(29.844472) sim 123#AC86F614C137417D
(29.865081) sim 300#AD4C526B75B156DE
(29.885780) sim 7E0#AE9E9E0994E10E87
(29.906463) sim 7E8#AFFED0BB3D0C236F
(29.927111) sim 7E0#B022E5231426E565
(29.947945) sim 200#B154E698D0AA5A9C
(29.968629) sim 200#B2886047E4930FEC
(29.989108) sim 18DAF110#B3DC24324CCB1D95
(30.009460) sim 7E0#B4C1AF2E0B5912A5
(30.029989) sim 7E8#B578DF55589C924C
(30.050451) sim 7E0#B642A8E3606CEAF5
(30.070843) sim 18FF50E0#B7D072EAFAA10B72
(30.091259) sim 7E0#B86E67C48B676DD1
(30.111624) sim 123#B974744B53553584
(30.132049) sim 123#BAE95514258312E3
(30.152590) sim 123#BB95333D23F97582
(30.173026) sim 18DAF110#BC98AAC38A1519E8
(30.193458) sim 123#BDAE6BDD3BA50968
(30.213871) sim 7E8#BEAD01BA488B775F
(30.234304) sim 456#BF4DD5B221B0A9CA
(30.254654) sim 123#C0739CBC7DF41F18
(30.275054) sim 18FF50E0#C1A4F3D432F166A5
(30.295501) sim 18FF50E0#C27B85144AE74075
(30.316054) sim 7E0#C354E67FB0EF03FD
(30.336483) sim 300#C4D34854AA8D2AF7
(30.356944) sim 456#C5F2DE8629375B07
(30.377513) sim 7E8#C63A23BCE8E4FCBF
(30.398136) sim 18DAF110#C78B6745B80175CA
(30.418615) sim 456#C83EBDA3CDB26034
(30.438906) sim 18DAF110#C985772B3BBF31C9
(30.459163) sim 200#CA1F1B9E363373A5
(30.479511) sim 7E0#CB0EB7C28443F4BF
(30.499989) sim 456#CCB54F5A2E16629F
(30.520437) sim 18DAF110#CD5EE184837F366D
(30.541071) sim 7E0#CE0A7D9EDECA9397
(30.561630) sim 7E8#CF9FE1B7A17EAB58
(30.582134) sim 123#D067CAF4D8DA3907
(30.602674) sim 123#D1DDE6B3B0A767F0
(30.623121) sim 18FF50E0#D222AC1C2D5718D2
(30.643577) sim 7E0#D301D25A94E43E80
(30.664033) sim 123#D4237ED37CB1EA19
(30.684372) sim 300#D5694ED11C05FD3F
(30.704771) sim 200#D6A09B09C1F797B9
(30.725343) sim 7E8#D758798A5FDEB3C2
(30.745807) sim 300#D8936C19E677007A
(30.766169) sim 7E0#D9639056A33AE396
(30.786451) sim 456#DAC817EFD9CF2706
(30.806846) sim 18DAF110#DB286EBFC5D3485E
(30.827286) sim 456#DC003C1A4A3DFF97
(30.847643) sim 200#DDAA336F8FCCBEC6
(30.868084) sim 123#DE285B6C63B21F67
(30.888580) sim 18DAF110#DF55C595A9A8C6CD
(30.909077) sim 200#E0F3787D63009EAA
(30.929435) sim 300#E153B00E989293E1
(30.949804) sim 7E0#E20ED125F84897D5
(30.970296) sim 7E8#E353426989B908B8
(30.990673) sim 456#E48AE5EBC6A3D777
(31.011183) sim 18DAF110#E5533AB3427D0B52
(31.031536) sim 18FF50E0#E60D6FE05A3A0F24
(31.051920) sim 7E0#E7C19C1D4D77D533
(31.072345) sim 18FF50E0#E82DFD1ECB25BCC0
(31.092771) sim 456#E941FAB9B8A49AB4
(31.113175) sim 18DAF110#EAA583DB4F2AB0D8
(31.133620) sim 200#EB939DB5557FA430
(31.154020) sim 7E0#EC9258A038D28907
(31.174465) sim 300#ED5D61B640965EEF
(31.194912) sim 300#EE750126AEC8D534
(31.215411) sim 7E0#EF22B5ED62CFF40F
(31.235998) sim 18FF50E0#F0788B208C7B6DBC
(31.256501) sim 456#F1721AD506DCCD3D
(31.277034) sim 18DAF110#F2067F555E821CE7
(31.297572) sim 18DAF110#F3799819A884D033
(31.318101) sim 7E8#F497C901F30F7763
(31.338509) sim 300#F5662813AB4CA577
(31.358891) sim 7E0#F6ADFB4123D4EF68
(31.379301) sim 18FF50E0#F7194735022FDF9C
(31.399675) sim 18DAF110#F803DE06F3062D35
(31.420168) sim 200#F9D2752603FD1F6C
(31.440678) sim 123#FA161839E1A626C4
(31.461283) sim 456#FBCC2582F04BC41C
(31.481911) sim 18DAF110#FCE73DBDEEF61B6A
(31.502673) sim 18FF50E0#FD747F6F428302B8
(31.523260) sim 300#FED9026DC5830FB3
(31.543828) sim 18DAF110#FF9DBE93C043EAB7
(31.564406) sim 18DAF110#00EF0C828361B03F
(31.584956) sim 200#017CB450272B856C
(31.605464) sim 123#02EB0A17FCFDD8C1
(31.625915) sim 200#03F43E5F5651E981
(31.646417) sim 18FF50E0#048D1CA704AFA0B5
(31.666817) sim 200#059A798892EB8ED3
(31.687407) sim 123#06C161591FF85F8E
(31.708024) sim 7E0#07852381AB136CEB
(31.728467) sim 18DAF110#08F6AEE9ED685DD5
(31.749002) sim 18FF50E0#097E09C3965A84D9
(31.769518) sim 456#0AF820A93C2128B0
(31.790085) sim 7E0#0BD5B9B30809368E
(31.810688) sim 456#0C00D7DC5EE74FFB
(31.831462) sim 300#0DD2D511B3C8A702
(31.852198) sim 200#0E8B2B6BA840690A
(31.872840) sim 18DAF110#0F6245E9F5FB83AD
(31.893414) sim 300#102A6D3FC90ADA19
(31.913939) sim 123#11C463A74448C2B0
(31.934572) sim 123#123769E3829A394F
(31.955040) sim 7E8#13D517F49ACF9389
(31.975412) sim 300#14BA728E66CA75E8
(31.995720) sim 123#152024A55418E390
(32.016205) sim 300#163045DA22235815
(32.036503) sim 7E8#1725D582E4EDD727
(32.056749) sim 200#183FF4980BB1F782
(32.077006) sim 123#191F581B4FB63E98
(32.097288) sim 123#1A875040EDDAA3D7
(32.117533) sim 18FF50E0#1B193F56E34BB514
(32.137797) sim 123#1C7B2A90673925F7
(32.158013) sim 123#1D1ADB8325A7B2C9
(32.178229) sim 300#1E6F92480B2E4333
(32.198451) sim 123#1F37D4F26DE93077
(32.218671) sim 18DAF110#201B2A271956B836
(32.238881) sim 7E8#21DB8531CD820997
(32.259113) sim 456#22D6DAF40FD800EB
(32.279338) sim 200#233AB13AE177859F
(32.299662) sim 7E8#244FCD88E89FFB3E
(32.319995) sim 123#25F641470574969E
(32.340257) sim 18DAF110#26FE1801378542E6
(32.360540) sim 7E8#273A3AF5D7A65D4B
(32.380851) sim 7E0#2850B15419139B2F
(32.401273) sim 7E0#299CC99FD1186498
(32.422077) sim 7E0#2A1BA579F7E52BCA
(32.442712) sim 7E8#2BCE92279AE153B9
(32.463251) sim 18FF50E0#2C21C53D5EF2D220
(32.483874) sim 7E0#2D59EE0C16E4479F
(32.504506) sim 7E8#2E7DC7FAE3BD8F9B
(32.525186) sim 456#2F8D017D62717E46
(32.545897) sim 200#30C902FB6B097FC1
(32.566478) sim 7E8#3193B229AB1CD76D
(32.587147) sim 7E8#325C75FEE4AF41A2
(32.607761) sim 18FF50E0#33C7785E5CEF2804
(32.628281) sim 300#34C55DF09101D8A5
(32.648701) sim 7E0#35742D5C66D5F833
(32.669051) sim 456#36DD4ED7CF343AB3
(32.689404) sim 18DAF110#37570E14E87A00B4
(32.709814) sim 200#38ABFA3F198AE9F7
(32.730237) sim 300#3905B24AEFA4CD4A
(32.750862) sim 18FF50E0#3A16E6999DA8BF84
(32.771348) sim 18FF50E0#3B2657A85EC6628B
(32.791820) sim 7E8#3CE7B0322B20FA4E
(32.812663) sim 7E8#3DA43A9FF2B0C492
(32.833360) sim 200#3E07795038F6EBA8
(32.854050) sim 18DAF110#3F79735C93F8A143
(32.874618) sim 300#40FB40D47EFEA9E5
(32.895136) sim 7E0#41C6DF8C6F53B0F0
(32.915797) sim 18DAF110#422D3666BC3C841E
(32.936557) sim 18DAF110#4361B091AD2719D4
(32.957270) sim 300#441E65E699C3B245
(32.977905) sim 18DAF110#45EA9317D2D5EEDC
(32.998293) sim 300#469C3545C62F4F4B
(33.018898) sim 7E8#4700A73730F65D29
(33.039663) sim 18DAF110#4813140C3117D8F1
(33.060359) sim 7E8#496182E21F01F679
(33.081208) sim 18DAF110#4AD5F5F80FB47960
(33.101889) sim 456#4B48D76742B25EE7
(33.122585) sim 200#4C8B19254FD721C8
(33.143220) sim 456#4D6DE0DE3CF4FE7F
(33.163861) sim 123#4EDE33B0C1A15985
(33.184694) sim 200#4F5DBCAC5275313C
(33.205187) sim 123#50922928D594BE70
(33.225976) sim 18FF50E0#51252DF774795790
(33.246942) sim 200#52A3FB8C53E873AA
(33.267605) sim 7E0#53647B01D3225BD7
(33.288429) sim 456#54B14E030C4290BB
(33.309145) sim 18DAF110#5579F5CA6EC925A3
(33.329838) sim 18DAF110#56619679B6279663
(33.350648) sim 18DAF110#57EAD4A31E0EEA9A
(33.371047) sim 18DAF110#581280449DFE12B4
(33.391708) sim 300#597E074C10B2DB90
(33.412416) sim 18FF50E0#5AAF1EF7A886B96B
(33.433055) sim 456#5B5B57D3C75FC421
(33.453577) sim 7E0#5CC8A67B63E2E7C7
(33.474106) sim 7E0#5D0549AC22FA73F2
(33.494744) sim 7E8#5E87FE32E1E976C3
(33.515324) sim 18FF50E0#5FDD109500801E8A
(33.536268) sim 200#6087C667F0B08938
(33.557231) sim 300#61D3D2B7CBDA26A8
(33.577930) sim 7E0#62663A0BCAE16351
(33.598496) sim 300#6366394FE8291553
(33.619125) sim 18FF50E0#6488FDA074D51B63
(33.639703) sim 456#659B763F99254E89
(33.660251) sim 123#661B33E29121598C
(33.680832) sim 18FF50E0#67223DBA93BAB923
(33.701368) sim 7E8#684C7C3531685D85
(33.721910) sim 7E8#69C865162A285022
(33.742459) sim 300#6A1C679AF3A1385D
(33.763111) sim 7E8#6B2A1E0AA599FA9D
(33.783654) sim 18DAF110#6CC48F2221B66A1A
(33.804137) sim 456#6DDDC9A2E10D183F
(33.824655) sim 456#6ED51D47ED86CB59
(33.845203) sim 200#6F44E54A49351663
(33.865816) sim 18FF50E0#70D478F1FDE8F442
(33.886194) sim 200#713745AC098B62F4
(33.906601) sim 300#72992C0EFDCE4332
(33.926995) sim 300#7358F0A2D497449D
(33.947542) sim 7E0#74A63169EC01BAE5
(33.968024) sim 200#75A51C95B570FB6C
(33.988433) sim 300#767EEEC79DA2E532
(34.008818) sim 300#775FB0E96DFDFBAA
(34.029150) sim 7E8#7870376D8BDDF836
(34.049648) sim 18FF50E0#79C77FBFE8B16CA3
(34.070027) sim 456#7AB829430E735B06
(34.090356) sim 18FF50E0#7B643543ECA7E02D
(34.110794) sim 7E0#7C07A7FDDC7CB57D
(34.131200) sim 300#7D600D4ADCBF5A3E
(34.151666) sim 456#7EE94AB0208B98B7
(34.172053) sim 18DAF110#7F71BFFD2FEE33A5
(34.192461) sim 18FF50E0#80D87F9AC4D570CF
(34.212997) sim 300#8107CBD0A9BADE8C
(34.233715) sim 200#82DB6200DBFB0355
(34.254184) sim 18DAF110#830FD36BFEDAB26F
(34.274730) sim 18FF50E0#8416E050F082C80B
(34.295348) sim 456#85EE38572A081E30
(34.315785) sim 7E0#8695230F9A1D57E5
(34.336422) sim 123#870EC0F7567D1A81
(34.356717) sim 18DAF110#886B1F748CAE0DEB
(34.377258) sim 18FF50E0#89FC0B20EE457906
(34.397763) sim 456#8A52425ED7E0DE75
(34.418177) sim 300#8BDB2A3808E71B35
(34.440234) sim 7E0#8CE6F343F5C95894
(34.460667) sim 200#8D5D3D1E13B55681
(34.481287) sim 18FF50E0#8ED1183F356AB64A
(34.501791) sim 7E0#8F29CEEC4CDFD4CA
(34.522282) sim 18FF50E0#9048EED4F7424636
(34.542840) sim 300#91F1E6E9B5959129
(34.563381) sim 123#9246AA174E798A6E
(34.583828) sim 200#93C15897A4E8DBAC
(34.604268) sim 123#94DA6895F0F4F11E
(34.624638) sim 18FF50E0#95D182B8F46A4E1D
(34.645079) sim 300#96A6760DEC502F92
(34.665375) sim 300#9712A9FB494CA6F8
(34.685799) sim 200#98135AB71A956AC6
(34.706395) sim 123#99ECF991E766033D
(34.726926) sim 123#9AE72F8AF182516E
(34.747347) sim 200#9B38F23C33C22671
(34.767740) sim 7E8#9CC9F92113C16920
(34.788140) sim 7E8#9D5BD80BAE9AA77D
(34.808476) sim 123#9E8E0ACB0C53E0B4
(34.828843) sim 300#9FD9FD921121634A
(34.849249) sim 7E0#A0960684ECBFA9C8
(34.869740) sim 7E0#A14308731EB04CC6
(34.890293) sim 7E8#A21CADBFBB34C162
(34.910843) sim 123#A3B25606C8539257
(34.931362) sim 123#A4AAA80C4C9C303B
(34.951801) sim 456#A5F8309B57D01A35
(34.972382) sim 456#A654285E63BA9B4B
(34.993026) sim 300#A70A329950348E7A
(35.013860) sim 300#A8939BE1B80DCAA0
(35.034610) sim 7E8#A9D7C1A7BD2AEF19
(35.055174) sim 18DAF110#AACAC9B7ADCD8EF8
(35.075585) sim 456#AB66F67B9E38C7CB
(35.096061) sim 7E8#ACC00C75C8B6426A
(35.116946) sim 7E0#AD1A611115E75F24
(35.137546) sim 300#AECC17D847F2919E
(35.158059) sim 300#AF7503F5FA949B1B
(35.178667) sim 200#B07E69248E9401D9
(35.199275) sim 123#B18A6E640E6ADBA3
(35.220060) sim 456#B2AC0C5CF88EFEBE
(35.240670) sim 18DAF110#B3C1EE0522D64F8B
(35.261122) sim 300#B476CF6068CFE411
(35.281664) sim 123#B53E035771B425DF
(35.302194) sim 18FF50E0#B6AEDCB553031290
(35.322857) sim 18FF50E0#B7B2070E91E1757F
(35.343608) sim 200#B8BF1ED1964AFCFA
(35.364201) sim 7E0#B9A85F8EB375525A
(35.384850) sim 18DAF110#BA602FAAB94B4C71
(35.405601) sim 123#BB67804005EE965B
(35.426322) sim 18FF50E0#BC4715E603879170
(35.446858) sim 7E8#BD41393610A90B51
(35.467380) sim 18FF50E0#BEB30AB99F1B68CA
(35.488007) sim 18DAF110#BF5550D4BD84C981
(35.508465) sim 18FF50E0#C01C2999E2039928
(35.529305) sim 123#C1CEF677C53FFA20
(35.549855) sim 18FF50E0#C28E8D3FA5515EC2
(35.570410) sim 300#C3C03B164B596042
(35.590932) sim 300#C4D7741D8D491A9F
(35.611380) sim 300#C5CDCC7D2EBB5CE1
(35.631728) sim 200#C6D47C2D8FFBF876
(35.652383) sim 7E8#C7588890028630B3
(35.673045) sim 18FF50E0#C83E07596E822A47
(35.693598) sim 200#C9DD35D5D3926060
(35.714101) sim 300#CA3772FDC2C592F8
(35.734667) sim 7E8#CB91649914A5D9C3
(35.755365) sim 300#CCC33B64F7245EE1
(35.775733) sim 18DAF110#CD4BABF3EE0A9474
(35.796294) sim 7E0#CE92295404AFC772
(35.816728) sim 7E0#CF1F57457104C398
(35.837249) sim 18DAF110#D0E46DCDA50CC86F
(35.857772) sim 7E0#D1B83E18E17D2526
(35.878150) sim 18FF50E0#D2BA6A7EC878F7A9
(35.898511) sim 7E0#D39C6A3CA5CFA2DE
(35.918876) sim 18FF50E0#D4C55D46C05DEE96
(35.939435) sim 123#D52886EFA3F60FCA
(35.959996) sim 200#D6B81C445B4E3236
(35.980540) sim 18DAF110#D79CE01CA8D07D04
(36.000900) sim 123#D8E3A5C56CD9983C
(36.021251) sim 123#D97D1BB119BE7685
(36.041675) sim 456#DAE8D2C679A962A5
(36.062054) sim 18FF50E0#DB24F3D0CAB6E944
(36.082776) sim 456#DCA61AD9725248B4
(36.103136) sim 18FF50E0#DDB38CE7EA53464B
(36.123679) sim 18FF50E0#DE81A56EA500A5ED
(36.144113) sim 123#DFD763731A5BF36A
(36.164643) sim 18DAF110#E0A8A7CEF06820CA
(36.185088) sim 18DAF110#E15B8E80AD046498
(36.205591) sim 456#E2210B79C6EF3B5D
(36.226146) sim 123#E3876BE57C26CC42
(36.246663) sim 7E0#E49210536E1CE9F8
(36.267085) sim 200#E55BB18CEE3AC949
(36.287535) sim 18FF50E0#E6C5A7B5D82E24A2
(36.308061) sim 123#E707D2815F59745F
(36.328544) sim 200#E8D7D1F25B7C61EB
(36.348936) sim 456#E93FCF907FF26F7C
(36.369398) sim 7E8#EA674492B59BF161
(36.390015) sim 123#EB27C46B958644A5
(36.410499) sim 7E8#EC1AED504C2FEB38
(36.430969) sim 18FF50E0#EDB8E67E6B14A6E4
(36.451432) sim 18DAF110#EE766079295B42B3
(36.471985) sim 7E0#EF3E3F5EF8F23E42
(36.492465) sim 456#F02ED785C2A742C5
(36.513138) sim 7E0#F1308C926D0C5090
(36.533604) sim 18FF50E0#F2959567AD45D751
(36.554094) sim 300#F30CF01210E9E205
(36.574758) sim 123#F4821D7EA0C0259A
(36.595506) sim 200#F5A8E8BA3E55A9A9
(36.615964) sim 7E0#F67F93F1B609488D
(36.636354) sim 200#F783237B93660611
(36.656814) sim 7E0#F853D725C31C4213
(36.677297) sim 18FF50E0#F9BB1599A88CF268
(36.697751) sim 300#FAF5F9332227BA2F
(36.718235) sim 7E8#FBC18329139C3FA9
(36.738829) sim 123#FC3F4918A632D4B2
(36.759617) sim 18FF50E0#FD53AC4AC2BA445F
(36.780260) sim 7E0#FEA3401597644F9F
(36.800711) sim 7E8#FFEC324D74F3A391
(36.821146) sim 300#00BBCE46AAC19CCE
(36.841795) sim 300#0102FF86F8508034
(36.862217) sim 7E0#0220E9D0052AE684
(36.882764) sim 18FF50E0#036DA876C3B6994E
(36.903471) sim 300#047FC0EF9C2AC8CA
(36.924080) sim 200#05D565CBC26FDEE7
(36.944725) sim 18DAF110#06B3621029982CC7
(36.965531) sim 18FF50E0#07E3E8760E14F0DD
(36.986180) sim 18FF50E0#085016062C3B7208
(37.006624) sim 7E8#092E46DEDCE0F183
(37.027022) sim 456#0AF0F1E3EB0DE54A
(37.047549) sim 7E8#0B4A83D3401FD055
(37.068028) sim 7E0#0C11DDD170311AE0
(37.088387) sim 300#0DB81BE817345132
(37.108741) sim 7E0#0EA2528796F27B1D
(37.129245) sim 300#0FDA9C6FE270C3C7
(37.149855) sim 300#1009990640E95912
(37.170402) sim 18DAF110#113B4444C8EBADC2
(37.190944) sim 7E0#12F96FE125BF1161
(37.211518) sim 200#138869FCAEA7C134
(37.232038) sim 18DAF110#144C90F0AA3E9DBC
(37.252442) sim 7E0#15DCE8B52A1422E2
(37.272884) sim 7E8#164384AB8E9E05A1
(37.293371) sim 7E8#173411D51F3CD0B7
(37.313961) sim 7E0#1824545504F8E2D9
(37.334428) sim 7E0#19D619B16B3B3C07
(37.354848) sim 200#1A4A3A16C5C01CB1
(37.375355) sim 18DAF110#1B818E3F337DC6AB
(37.396067) sim 456#1CA0E38AA900152F
(37.416453) sim 200#1DB4E8ADA0D53FF0
(37.436890) sim 300#1E6FEF1A756C59B3
(37.457506) sim 456#1F6B00D1B15A607B
(37.477925) sim 300#2095758B682551A8
(37.498368) sim 456#210BABA3B0FB4F9F
(37.518883) sim 18DAF110#2210444DE502B4CB
(37.539310) sim 456#23F71D0AA4FDC77A
(37.559807) sim 18DAF110#2430C2B474D74301
(37.580388) sim 7E0#25AFFBB917B9A72B
(37.600861) sim 18FF50E0#265E5A6DAC9E7EED
(37.621291) sim 300#27F0CA393D6BB2E6
(37.641873) sim 7E0#286DAEE82121AD9F
(37.662445) sim 200#29F4B606CC00A387
(37.683033) sim 7E8#2A5FF2568FCAB7F0
(37.703480) sim 456#2BEED4B565658D80
(37.723968) sim 18DAF110#2CB6A430CFE58C1B
(37.744287) sim 7E8#2DDF825BB49172CB
(37.764667) sim 200#2EA0D89D52F6CFCA
(37.785040) sim 200#2F2A634BDB2CB9FB
(37.805615) sim 7E8#30282A660CF111BA
(37.826291) sim 18DAF110#31589A08BF0645CB
(37.846929) sim 7E8#32048DAC4D4D7588
(37.867337) sim 300#3341AD275153E887
(37.887958) sim 18FF50E0#34399DC6C0262BB3
(37.908414) sim 18DAF110#3500C9D9489F1483
(37.928844) sim 18DAF110#36433A367A497220
(37.949273) sim 18DAF110#37F28FABDA2278F6
(37.969744) sim 18FF50E0#3816F12963A48288
(37.990254) sim 123#3936E75512E9ADB6
(38.010787) sim 200#3A7688D1117FF9E5
(38.031223) sim 18FF50E0#3BBEBF870C881525
(38.051778) sim 200#3CBC7B031CCD87F1
(38.072386) sim 300#3D6C47F892C305D8
(38.093077) sim 200#3E3E25EDB65831F2
(38.113652) sim 7E0#3F312D596B3DD584
(38.161322) sim 200#40D4C77ADC7F1EA9
(38.181850) sim 200#41D77E76602114B0
(38.202394) sim 18FF50E0#4206B8FBF9BAB84D
(38.223017) sim 18DAF110#43062092FE8152E4
(38.243462) sim 7E0#447FCA3B144EB0E5
(38.263806) sim 18FF50E0#4518D9E1F960DD46
(38.284245) sim 18FF50E0#468E9EE302E0FCA0
(38.304737) sim 300#47C77C1E303C60F0
(38.325174) sim 7E8#488BEC23FF995693
(38.345668) sim 7E0#494A957E08905E78
(38.366203) sim 456#4A44360E6F225D85
(38.386654) sim 123#4BEB21EEB2DF1275
(38.407029) sim 123#4C311890891A518F
(38.427558) sim 7E8#4DE8596529E57DEE
(38.448085) sim 7E8#4EB3655EE3D6369E
(38.468652) sim 18FF50E0#4FFE8EE030182DC8
(38.489267) sim 7E8#5080DB6CFDD961BC
(38.509866) sim 456#517150D12F2B4A05
(38.530469) sim 18DAF110#5263DA982E39D4D3
(38.551212) sim 7E0#53472F7FB006D2BC
(38.571625) sim 456#54204EFF86C109BC
(38.591948) sim 18FF50E0#555FC6916D1724A3
(38.612221) sim 18DAF110#56B81E632139E8CF
(38.632953) sim 7E0#57DAEB9D1B65F8BF
(38.653519) sim 18FF50E0#58DC412BEC8457B6
(38.674090) sim 456#5900A6CE53BA504D
(38.694663) sim 456#5AF0E113C323E6D7
(38.715157) sim 123#5B4323F38C1EB76F
(38.735629) sim 18FF50E0#5C25B897D51A8D40
(38.756167) sim 123#5DCC86CC37C9573A
(38.776782) sim 18DAF110#5E5B381DBB93EA5F
(38.797385) sim 18DAF110#5FF0BC93A82B433B
(38.817805) sim 200#60319AF41346A97A
(38.838224) sim 18FF50E0#61497DDD7BA75550
(38.858634) sim 123#6265DCFFCAE3345A
(38.879275) sim 300#63FC2D44C62E55B2
(38.900030) sim 123#64E588C35B6AEC80
(38.920596) sim 7E0#65295A559261030E
(38.941167) sim 456#667E3B6F4BFA9151
(38.961593) sim 7E8#6735E172EEBE8BD1
(38.981965) sim 123#68C6F97E79A12583
(39.002573) sim 18DAF110#692C43E774AAB7B3
(39.023078) sim 300#6A7934470B5F4857
(39.043641) sim 7E8#6B12B3A0F1523081
(39.064350) sim 456#6C31A8F0BFF66AD0
(39.084945) sim 456#6D635B961D599681
(39.105506) sim 7E0#6E03F50CA22AD291
(39.126038) sim 18DAF110#6F91077E1F03E3D3
(39.146582) sim 7E8#702AEF6509040CB6
(39.167187) sim 7E0#71CE5000BFEEAAF1
(39.187725) sim 300#72E75006593159F5
(39.208290) sim 18DAF110#73494967960DCDA0
(39.228909) sim 300#743DFBFA70988844
(39.249541) sim 7E8#753D859559D6BA67
(39.270246) sim 200#76E718B59627DF29
(39.291039) sim 300#77229450D6228A29
(39.312024) sim 200#784FC2E58B2674F4
(39.332574) sim 123#79795636F9BB569B
(39.352975) sim 18DAF110#7A0328E43155E2BC
(39.373517) sim 18DAF110#7BB869188432DAB2
(39.394136) sim 456#7CD35A368BF4A884
(39.414739) sim 18DAF110#7D71764868F81E60
(39.435237) sim 456#7E4F6C8B1F3D2593
(39.456071) sim 123#7F5F40858CD34DB0
(39.476491) sim 456#80AAA9FDBDB3BDFF
(39.497064) sim 18FF50E0#81CA63BB6D98375C
(39.517516) sim 18FF50E0#823910022924DD46
(39.537926) sim 300#8319BC49F0337D20
(39.558710) sim 18DAF110#84EE3ED0467A859D
(39.579161) sim 456#857DA7C95AD73368
(39.599536) sim 18FF50E0#861BD50B6B07D918
(39.619973) sim 456#870935BFCF13CFD0
(39.640329) sim 123#88823EAB038ECE2F
(39.660700) sim 123#89417D82E1F72447
(39.681171) sim 18FF50E0#8A3DDD5055A00041
(39.701684) sim 456#8B515DBF735E9B02
(39.722186) sim 18DAF110#8CF36697490520F3
(39.742524) sim 200#8D7D5630B0CD6B9F
(39.762944) sim 123#8E0648D4009B2C62
(39.783391) sim 300#8F88E69E09D09E47
(39.803981) sim 200#90930D704B05B8B0
(39.824420) sim 18DAF110#91AB9288026C6395
(39.844804) sim 200#92D13BB8D193D85E
(39.865220) sim 7E8#93EFB9F9866AE1CC
(39.885619) sim 200#942F4270334F9C11
(39.906046) sim 18FF50E0#95EF5A74C796E2C7
(39.926444) sim 7E0#96A297CA91E312B9
(39.946833) sim 18DAF110#974960C3A570FEA2
(39.967321) sim 18FF50E0#98A977DD9FFD14A6
(39.987768) sim 123#999D682A1804FEBC
(40.008209) sim 123#9A3BB35F4002FF1B
(40.028642) sim 7E8#9BD26B22B8DBCF82
(40.049201) sim 123#9CB5156701A4E566
(40.069612) sim 123#9D223AD15E025386
(40.090187) sim 18FF50E0#9E4BD4248FE0D1DD
(40.110611) sim 18DAF110#9F7FE8F300169610
(40.131221) sim 18FF50E0#A0C3F143EECB3CB5
(40.151687) sim 7E8#A165A4D8C558D83E
(40.172122) sim 200#A2E72D31251ACD50
(40.192580) sim 18DAF110#A3B47256395E6FA3
(40.213015) sim 7E8#A43878C3C163ED23
(40.233399) sim 456#A503114F326BCF92
(40.253812) sim 456#A63699AA314F998C
(40.274333) sim 7E0#A71F7050B138F7DC
(40.294847) sim 18DAF110#A833FF1849165942
(40.315305) sim 300#A9858FF6098F91C0
(40.335738) sim 456#AA6AE3E17604E148
(40.356330) sim 123#AB8A5FEACAB196AC
(40.376748) sim 123#ACAF85917083B1D3
(40.397274) sim 7E8#AD11483A7BF6B0C2
(40.417786) sim 123#AE52BEDC47F1E038
(40.438151) sim 456#AF8DB260ED51B813
(40.458547) sim 18DAF110#B01C04FBCE1E925C
(40.479009) sim 456#B1B280C4202E1A51
(40.499411) sim 200#B203E822B6DD3C80
(40.519776) sim 123#B3A37E5B60DDFF26
(40.540198) sim 300#B4DAF7798889F50D
(40.560669) sim 456#B58FD79EAC88A67D
(40.581154) sim 7E0#B65D25A67A716D1C
(40.601581) sim 456#B7A236D8C73886B2
(40.622004) sim 456#B8808EB4E6895F85
(40.642620) sim 18FF50E0#B9D6E275618FA640
(40.663033) sim 18DAF110#BA84E253F810E359
(40.683512) sim 123#BB21E616A97D5AEC
(40.704027) sim 456#BC1B504ED4224D26
(40.724556) sim 18FF50E0#BD388F4A31BE6B46
(40.744938) sim 18DAF110#BE6BB6775CF78575
(40.765437) sim 300#BFEC4FCA7F743E02
(40.786021) sim 300#C08BE92C86A6FF63
(40.806373) sim 300#C13028FAE6DB61B1
(40.826751) sim 200#C2517CB74C81F8B3
(40.847073) sim 18FF50E0#C3B439B8348577B8
(40.867364) sim 123#C4C1DEB35E375325
(40.887679) sim 7E8#C5657A1CA22AABD5
(40.908123) sim 456#C6FCF9AE660779F0
(40.928721) sim 18DAF110#C75E1A2C22082DA0
(40.949114) sim 200#C8E40631F62FA3A4
(40.969408) sim 7E8#C9CFA3950D723D7C
(40.989824) sim 300#CA8A460564949626
(41.010227) sim 18FF50E0#CBFD4A377D139D70
(41.030751) sim 7E0#CCE823D4E9032F8D
(41.051393) sim 18FF50E0#CD823E151BD41C69
(41.071853) sim 18DAF110#CE4D86706B6C743A
(41.092447) sim 300#CF1260741F321474
(41.112950) sim 200#D0D111DE82F0AB0E
(41.133377) sim 18FF50E0#D19A79C7CF009633
(41.153947) sim 18FF50E0#D2E462A5C7FE2680
(41.174337) sim 7E0#D30AFED61F33A6FF
(41.194794) sim 456#D48DE406E4832213
(41.215230) sim 18FF50E0#D5A0846FF6801448
(41.235623) sim 7E0#D6D2B1E2AF67C9DF
(41.256004) sim 123#D7CAFC180802B803
(41.276456) sim 18FF50E0#D8853E4711620B99
(41.296904) sim 7E8#D9A2B5BB09AA4076
(41.317432) sim 18DAF110#DA8B1B74DD2329CA
(41.337925) sim 456#DB6B8BEE1431CCA2
(41.358297) sim 7E0#DC92C4072619D828
(41.378695) sim 456#DD3DC680C74AF909
(41.399081) sim 7E0#DEB64A5D8BB139FA
(41.419533) sim 18FF50E0#DFF3E4A0471E6E14
(41.440001) sim 456#E049C638383A3F8B
(41.460328) sim 300#E120F579AA7B3E73
(41.480791) sim 7E0#E26283143BF45EED
(41.501527) sim 456#E3D5D9749F997CAD
(41.522068) sim 18FF50E0#E42E2E5401190846
(41.542648) sim 7E8#E50FA78AB9FA3ACD
(41.562956) sim 200#E6B7A434F60A5039
(41.583536) sim 300#E7C8BDB436458B2E
(41.603837) sim 18DAF110#E87CC0933F011D29
(41.624165) sim 200#E98609BC90448943
(41.644477) sim 18DAF110#EA5B3852BB7B493F
(41.664805) sim 18DAF110#EB89CB7F47B6CE76
(41.685102) sim 300#ECC32DE113D4170E
(41.705434) sim 7E8#ED79A1575788B0FB
(41.725863) sim 456#EE6752FA8AB875D2
(41.746330) sim 200#EFDC4EC61AD92FFF
(41.766856) sim 300#F02038D0B44F8E1A
(41.787466) sim 123#F16DD23ED84B0609
(41.808103) sim 123#F221811B723135C3
(41.828701) sim 300#F3C91585C6C0BB16
(41.849318) sim 7E0#F4513C30C83C8C4E
(41.869854) sim 200#F57E14B55035CE0F
(41.890315) sim 7E0#F691D9148A987D98
(41.910655) sim 123#F7C97EB26C26657C
(41.931085) sim 18FF50E0#F8DA57F736A9167C
(41.951710) sim 18FF50E0#F9AE4FE028619136
(41.972199) sim 200#FAAE33BC144A4642
(41.992674) sim 7E8#FB41265BD8CC96EF
(42.013212) sim 456#FC632A5814661F6C
(42.033574) sim 123#FDC930D4B51E5CF0
(42.053900) sim 18FF50E0#FE6D7AB63F6FEA13
(42.074238) sim 7E8#FF4EF1074E4954DE
(42.094658) sim 18DAF110#000E7EBD81F9875C
(42.114902) sim 7E8#018096066C9B7540
(42.135199) sim 200#02A417EF50BC755C
(42.155446) sim 123#033F8AB7466D822F
(42.175702) sim 456#0497D605B1B71A10
(42.195969) sim 18FF50E0#0558D4CB1929E74B
(42.216203) sim 300#06B82E1EAB4D1189
(42.236428) sim 123#07067193648766A7
(42.256650) sim 123#087FEBBAD76EDCC2
(42.276871) sim 18FF50E0#0968A529C974274B
(42.297157) sim 200#0A231A7F8C4E7E91
(42.317374) sim 18DAF110#0B2A4F41672F5A77
(42.337626) sim 7E8#0C61AA943E328FFB
(42.357999) sim 18DAF110#0D9608E64BE77E74
(42.378428) sim 7E0#0E897879C3B50B28
(42.398719) sim 456#0F30740B7437E911
(42.418990) sim 200#102F277FD38DB70B
(42.439304) sim 123#11888825F7130B15
(42.459775) sim 123#125F214BF665CAA5
(42.480235) sim 456#13848CF608518EF0
(42.500663) sim 18FF50E0#14AB61A0179A9D4F
(42.521304) sim 456#156EB8C5389F350B
(42.541807) sim 7E8#165DC24D8325BBFD
(42.562354) sim 200#176293235D6B1A2C
(42.583001) sim 123#18CDF0A170D45F39
(42.603575) sim 200#19FF5F1D40E613D8
(42.624238) sim 7E8#1AD87476DE6391BD
(42.644810) sim 18FF50E0#1B2439B0F6D7945F
(42.665425) sim 123#1C7958009CFEF054
(42.686054) sim 456#1D1EB8118B60090F
(42.706583) sim 456#1E5130054E9AA989
(42.727080) sim 456#1FBF76EB7ED001DF
(42.747600) sim 300#202B5DA7A5055E04
(42.768226) sim 18DAF110#212847586D3FE11C
(42.788903) sim 18FF50E0#2237BBD74A5518C0
(42.809597) sim 123#23D17C23CE08EFEA
(42.830209) sim 18DAF110#24DCB9A353BE6726
(42.850966) sim 18FF50E0#2525634AA083B5DA
(42.871446) sim 7E0#26B77D2EF122FF98
(42.892159) sim 7E0#27240FB0F1D5B349
(42.912688) sim 300#28AB48BA16B23CDA
(42.933451) sim 7E8#29A41608B7954C30
(42.954175) sim 7E8#2A547D8ACCB319FB
(42.974941) sim 7E8#2B5F65CB80C45FF3
(42.995718) sim 7E8#2CBEE97A4981DA8A
(43.016419) sim 123#2D3E3997C8A49050
(43.037138) sim 123#2EC83CEF1D539874
(43.057868) sim 18FF50E0#2F83D5238435AE3C
(43.078748) sim 456#30A616CCBBB0AA00
(43.099593) sim 456#31B3AC42A0481C9F
(43.120539) sim 456#3232FCF7CF8E834B
(43.141309) sim 123#3371E949409F436F
(43.162100) sim 7E0#3454724F6C90B8AF
(43.182920) sim 123#35220B6F0C229FB4
(43.203685) sim 200#36C412C94AA5DE73
(43.224547) sim 123#3740BE13356BCD32
(43.245318) sim 456#388329372683BE20
(43.265948) sim 456#392275C0CB45D4B6
(43.286608) sim 7E8#3A8C9D85E8E2675A
(43.307408) sim 7E0#3B0546E3ADD20F01
(43.328208) sim 456#3CFC84CC89E4D5FF
(43.349073) sim 7E0#3D1CE23C0E541B68
(43.369794) sim 7E0#3EE2F1539BA0D4C9
(43.390471) sim 18FF50E0#3FB3E3F9469C59EC
(43.411160) sim 300#40449A3EDDC284D1
(43.431987) sim 456#41832169631EF155
(43.452594) sim 18FF50E0#42BDE41929F06326
(43.473155) sim 18DAF110#4365FCC9B1F8B561
(43.493630) sim 123#448C51BF442C518E
(43.514172) sim 300#452D030006412801
(43.535150) sim 18DAF110#464FB5A24826FCA8
(43.556080) sim 18FF50E0#479647A3FCB6693B
(43.576832) sim 456#48E94C853C242594
(43.597522) sim 7E8#4961AD734F731752
(43.618253) sim 18DAF110#4A93F2FEB0586A17
(43.639023) sim 18DAF110#4BB876476E5CBCD2
(43.659641) sim 456#4CEE1BC2AA6BD894
(43.680224) sim 18DAF110#4DAB462A605FA50F
(43.700781) sim 300#4EEFB9C4317A3B03
(43.721420) sim 456#4F5EF3552E3AACF2
(43.741980) sim 456#509C4295690A4ABD
(43.762535) sim 456#514F17AE45F00C49
(43.783356) sim 200#525F3DF48B2EC8E0
(43.804139) sim 123#53EE4F9A2434A0EB
(43.824824) sim 200#54D0A632B467CE7E
(43.845545) sim 7E8#557A1E4FFEEB0CBB
(43.866113) sim 123#56BF0A8E0374A8F2
(43.886683) sim 456#57DAAAB719A8045C
(43.907383) sim 18FF50E0#58F305B049682E49
(43.928073) sim 18DAF110#59275819B4E5D5BE
(43.948653) sim 18DAF110#5AE5AF33D8CB1394
(43.969378) sim 18DAF110#5BE97385DF427274
(43.990298) sim 18FF50E0#5C21771AC2F5EBE1
(44.010920) sim 300#5DA2F10EF4E0AB83
(44.031654) sim 18FF50E0#5E9E5F9FAF31995A
(44.052238) sim 200#5F23292A99B07B1F
(44.072625) sim 7E8#60E7C0E25FBD2624
(44.093095) sim 7E0#619B1837A24AC752
(44.113892) sim 123#62DBA998C7DB2DFA
(44.134537) sim 123#63A9EE0A922FED48
(44.155072) sim 456#64C7AE4BB28F5CFA
(44.176439) sim 7E8#6530A652B8638CB0
(44.197324) sim 7E0#66EBD89829EC930C
(44.218185) sim 7E0#67B1290266DF412A
(44.250876) sim 18DAF110#6874ECA65C2D4FA9
(44.271491) sim 456#6902D44B823241B9
(44.292303) sim 200#6AA8084597C262BF
(44.312901) sim 7E0#6BC71B85C38DFEC6
(44.333563) sim 123#6CCEDA6FE888667A
(44.354181) sim 200#6D0F1E5D7283FE04
(44.374960) sim 18FF50E0#6E8BD5E79CF28B41
(44.395742) sim 456#6F164A1D631810FA
(44.416558) sim 200#70C0A6992CEEC7C6
(44.437369) sim 7E8#71295156A0ACFB26
(44.457985) sim 18DAF110#720558D8B684400C
(44.478472) sim 18FF50E0#730898635C9FFE1F
(44.499093) sim 200#7494B237796035BE
(44.519661) sim 300#750AA441BC5D0C5C
(44.540467) sim 7E0#76D60A138503CF2E
(44.561144) sim 300#7705F1448E13738E
(44.581644) sim 456#783517564F86117A
(44.602057) sim 456#79EA13FE33E9B030
(44.622505) sim 456#7AEEC1F3CFCF5307
(44.643005) sim 300#7BF58E580C5A5B75
(44.663559) sim 200#7C0B6902AFDBA73B
(44.684013) sim 456#7DAA97A55C05DA48
(44.704396) sim 7E8#7E0ABAB4902A59E2
(44.724832) sim 456#7F976A88923B0576
(44.745501) sim 7E0#801B537DE9D5EC78
(44.766006) sim 7E0#81913047C6574A24
(44.786435) sim 200#823A539BE9FC21D2
(44.806975) sim 7E8#8300D5EF300ED413
(44.827558) sim 300#842C335F6F710005
(44.848152) sim 7E8#856C7FF6C1283ADA
(44.868769) sim 123#8662D2304865D092
(44.889273) sim 18DAF110#87671599B99A3125
(44.909762) sim 18FF50E0#88FAE60A1A580A05
(44.930356) sim 18FF50E0#897334E91DE7943C
(44.950840) sim 123#8A8F723FB01DB275
(44.971267) sim 7E8#8B4DD2C2C7AC73A9
(44.991824) sim 300#8C74D6C1E0FFB662
(45.012408) sim 18DAF110#8DE27BD5E71F5247
(45.032880) sim 456#8E39BE1E2B8D8961
(45.053485) sim 123#8FAFF682041F0A71
(45.073958) sim 18DAF110#905D02BB365AA91E
(45.094463) sim 300#91F651228F011B78
(45.115131) sim 18DAF110#927BF5460CF0C9FB
(45.135821) sim 123#93B04D7A82CC9482
(45.156548) sim 123#946D65EE8B959057
(45.177156) sim 123#953AF4B3F33D9424
(45.197819) sim 200#9664BB177B7AD5C7
(45.218496) sim 7E8#9782581364D4D9D2
(45.239043) sim 456#98657B09DC897E90
(45.259653) sim 18DAF110#997C89634AD983FB
(45.280428) sim 7E0#9A24582956A19787
(45.301311) sim 456#9B7515846146E422
(45.321940) sim 7E0#9CEA44404D6B6937
(45.342517) sim 200#9DAC7972BED807FF
(45.362934) sim 200#9E4123A0C2195B69
(45.383347) sim 456#9F22527EA344C7EB
(45.403837) sim 200#A0CB8D009F7C83D9
(45.424484) sim 18DAF110#A1EBE09B6DDDF2FE
(45.445025) sim 7E0#A2B29997A2FB0B92
(45.465636) sim 123#A35CC249C37D65EC
(45.486186) sim 7E8#A4BC49F4C6E51CA7
(45.506808) sim 123#A50CF159C6117BDA
(45.527224) sim 18DAF110#A62B742972152C99
(45.547765) sim 7E0#A7A47C09A6BD7DC4
(45.568444) sim 18DAF110#A8054E9FAB06CE71
(45.589056) sim 7E8#A9AEBB43E00694F2
(45.609755) sim 200#AA39F0981E9677EA
(45.630327) sim 456#ABADF8D3E19A2A82
(45.650989) sim 7E0#AC80F116FCB34C46
(45.671591) sim 7E8#ADE62EB790F5DFE8
(45.692008) sim 200#AE3C527FA2C6CE4F
(45.712266) sim 456#AFEB849651AECB96
(45.732711) sim 300#B049619101A37D3C
(45.753448) sim 200#B1B71BCD31C090BB
(45.773925) sim 200#B29FEA019BE95818
(45.794375) sim 456#B39400B2A2005D11
(45.814984) sim 7E0#B4B8323768584086
(45.835567) sim 18FF50E0#B52A32082B4694CE
(45.856250) sim 18DAF110#B6F4C8ABCFE94B3E
(45.876905) sim 123#B72308605B8153FD
(45.897494) sim 7E8#B8D41ED7C7CF6ED8
(45.918208) sim 18DAF110#B92002E6D20116ED
(45.938948) sim 200#BA334D87E9CE632D
(45.959526) sim 123#BB8750ABC1BC58A4
(45.980245) sim 7E8#BC0503ECC53134D4
(46.000740) sim 18FF50E0#BDE69BA7ACABD1C6
(46.021235) sim 200#BEA8D5EB37D3F80E
(46.041904) sim 456#BF5AFCA5F25DE18D
(46.062588) sim 300#C0CD6075A92C188A
(46.083155) sim 300#C1CBA3A53A18C827
(46.103650) sim 200#C282FDDECE00D470
(46.124190) sim 200#C3044526E790CCD3
(46.144897) sim 7E0#C4F18AAA7E7CD8BB
(46.165395) sim 7E8#C57AE2EF6797A277
(46.185945) sim 7E8#C698DD932542D351
(46.206424) sim 456#C7DD80B24ED256D6
(46.226946) sim 123#C89CA6CBEF376F73
(46.247441) sim 300#C92C351B027D9396
(46.267987) sim 300#CAE44E9187F4D28F
(46.288636) sim 123#CBFA8F29D65D894A
(46.309269) sim 18FF50E0#CC36244DCD309ED2
(46.329947) sim 7E8#CDA7B693353F1374
(46.350472) sim 7E8#CE20435E80D2DEDC
(46.371058) sim 7E0#CF4E9EF5E195D9A6
(46.391593) sim 7E8#D0EC3B7AF260C66E
(46.412221) sim 18DAF110#D115098A6972CBDA
(46.432699) sim 200#D28DCE9C55218514
(46.453256) sim 123#D3DB7409E990C4A1
(46.473827) sim 7E0#D44A97102CD9C285
(46.494349) sim 7E0#D59E67739801C898
(46.514967) sim 123#D695C05F161C71F5
(46.535538) sim 7E0#D756D6770048640F
(46.556070) sim 18FF50E0#D8BE5587A19FBE2A
(46.576642) sim 200#D9B5C3E7D103B99E
(46.597351) sim 300#DA33D27FA066F4B3
(46.617944) sim 18DAF110#DBDA5017DA4A48B6
(46.638592) sim 200#DC39AE1DBD29EAD3
(46.659308) sim 200#DD975E8EA6E68267
(46.679919) sim 456#DE8639C023C8D044
(46.700437) sim 123#DF576D78C2BF5BD3
(46.721067) sim 300#E09560B46E959FC1
(46.741674) sim 18FF50E0#E18E11984088D2F3
(46.762248) sim 7E0#E2986CBD6B4E455B
(46.782710) sim 200#E3011F03630928E1
(46.803133) sim 456#E4833EC4B1D6C3B5
(46.823513) sim 123#E5B3E06C0C9116F9
(46.843973) sim 456#E637B15642C948A2
(46.864442) sim 123#E7779F43C37BA903
(46.884911) sim 7E8#E87172745C7CA25C
(46.905582) sim 300#E9F4E55BB3322837
(46.926323) sim 200#EA80A665C4187BF9
(46.946955) sim 456#EBC21114226F665D
(46.967660) sim 7E8#EC30105F2DC5B529
(46.988465) sim 200#ED60D3E9C93B035F
(47.009247) sim 7E0#EEB7B7F579043D1F
(47.029829) sim 18DAF110#EF992A3EA9D5083A
(47.050410) sim 456#F0874D4E06FB5C67
(47.071212) sim 7E8#F1E086C3056847B2
(47.091796) sim 300#F2B62BB62B384A31
(47.112176) sim 456#F38F3A62F0A9E846
(47.132786) sim 18FF50E0#F48F221C15D1908F
(47.153344) sim 456#F51E4FEFC5FB94E0
(47.174137) sim 456#F60CF39579A2C511
(47.194699) sim 123#F7345BC7CBCC1ADF
(47.215305) sim 300#F81962CFF2973E91
(47.235936) sim 7E8#F9E0B424F33DE279
(47.256472) sim 7E0#FA479FAB18AF9CDE
(47.277032) sim 456#FB3DDEE559DFC830
(47.297617) sim 123#FC0458312CD68975
(47.318170) sim 7E0#FD47032A884EDE72
(47.338688) sim 7E8#FE11EF57C0B8AE5F
(47.359285) sim 18FF50E0#FFBC4F33B07772D4
(47.379829) sim 123#00D28D2962BDB0BD
(47.400624) sim 7E0#01F9A11CD30CE520
(47.421285) sim 456#02FB424648EACC84
(47.441884) sim 456#03AB4A3EB2941952
(47.462489) sim 300#04B71794D8107FF9
(47.483032) sim 7E0#053720BC679F0A85
(47.503630) sim 7E8#06DCAF6B48DA2355
(47.524165) sim 456#07F79AF33FDF3FAF
(47.544692) sim 18FF50E0#0891A5B3B8B15239
(47.565140) sim 300#091A9FEF91017482
(47.585589) sim 300#0A8B96962B9F5686
(47.606053) sim 7E0#0BBFB403DD69B91A
(47.626539) sim 18DAF110#0C61EAD3BA089685
(47.647072) sim 300#0DB96FA9FD807E6B
(47.667653) sim 300#0ED0450760620E5F
(47.688214) sim 456#0FB9BF563F9D7222
(47.708763) sim 7E0#1079207A6BDD7086
(47.729463) sim 18FF50E0#11DD33F03C5A266C
(47.750149) sim 7E8#12ED42EF1D29901C
(47.770837) sim 300#13DB3A7A50A94E1B
(47.791483) sim 7E0#142D028FA7865671
(47.812019) sim 7E0#157A388AF82B9860
(47.832436) sim 7E0#1671986667E4BBB8
(47.853102) sim 7E8#179ADEC1392DF808
(47.873770) sim 456#18ACDAB8D8910378
(47.894401) sim 18DAF110#198D23314C4D9326
(47.914891) sim 300#1AEA718931814939
(47.935554) sim 7E8#1B4BED5B2FE4B45E
(47.956426) sim 200#1C392EE79A317E17
(47.977002) sim 18DAF110#1D3FF0E587617767
(47.997614) sim 7E8#1E485976B788A724
(48.018091) sim 300#1F4240FE8E0C5EC6
(48.038690) sim 456#201AAD0EC2FDDD35
(48.059200) sim 200#21E1C86B1B7F609D
(48.079713) sim 7E8#222C49B2BFF448F0
(48.100353) sim 18DAF110#233A29157322DD60
(48.120808) sim 18FF50E0#2494C0E14C414434
(48.141415) sim 200#255D3A692A32E4BD
(48.162188) sim 300#26A7E8D6F5169B47
(48.182666) sim 300#27E753969FBAFDE9
(48.203111) sim 123#2853C0592FF50DE7
(48.223639) sim 7E0#2951ADA1C83781C7
(48.244326) sim 200#2A33FA5536B29889
(48.265059) sim 18DAF110#2B1201E4846E598F
(48.285606) sim 18DAF110#2CBD23327B8B1BE4
(48.306118) sim 456#2D8A97291CD21806
(48.326637) sim 200#2E470935756946F1
(48.347187) sim 7E0#2F5E48C30B09BCED
(48.367698) sim 18FF50E0#3072A0C9C2D55DA3
(48.388371) sim 200#3148B8E9740D9E92
(48.409077) sim 7E0#325D15944B545320
(48.429544) sim 200#33F159C4869C13E4
(48.450091) sim 456#3485B6B39C53D0E6
(48.470809) sim 456#35CE362A5B154DED
(48.491548) sim 123#3606A812344A5465
(48.512384) sim 300#3789E0EDDC4DEAF9
(48.532876) sim 18DAF110#38E08717BA884379
(48.553339) sim 456#393EAB0CCC51CD88
(48.573793) sim 456#3ACF84370A6ABD0B
(48.594083) sim 18DAF110#3B307F7245CE3F3F
(48.614419) sim 123#3C743042BBD1002D
(48.634803) sim 7E8#3D3964AAC786D1EF
(48.655197) sim 300#3E4F68D91B89C99B
(48.675703) sim 300#3F2E1523D8B6BDDF
(48.696244) sim 123#40F3C3F6A12484B4
(48.716696) sim 456#41A54220DBBCA7DF
(48.737161) sim 18DAF110#42C651D4DEBDB9AC
(48.757646) sim 456#437587CE4EFD74DF
(48.778128) sim 18DAF110#443195ACFB0DA181
(48.798690) sim 123#45EF4B2FD6DE750F
(48.819250) sim 18DAF110#46DA9615431408CD
(48.839721) sim 300#47BF7E2494C0BDFF
(48.860253) sim 18FF50E0#48E5B6F5F87BC7AA
(48.880929) sim 300#490DA092F8CB4460
(48.901645) sim 300#4A259243B8852592
(48.922228) sim 300#4B46D8AB9E171A0C
(48.942842) sim 7E0#4C4A3870A5F598CA
(48.963482) sim 18FF50E0#4DF6C117ED9E2975
(48.984100) sim 18DAF110#4EA341F2899D5D13
(49.004541) sim 300#4FB4767A0753227F
(49.025057) sim 18FF50E0#50FE73237AA0136D
(49.045453) sim 200#5193E7998AE0D5F3
(49.066044) sim 7E8#52BCC696E80C3C86
(49.086559) sim 18FF50E0#53A9B8186A4BAC45
(49.107234) sim 123#549F1094A47B9AB8
(49.127815) sim 7E0#55BC25613FFF1345
(49.148291) sim 7E0#563405CEDA816E00
(49.168882) sim 300#57ECEF8DEBDD53D9
(49.189439) sim 18FF50E0#581C4920D515646A
(49.209926) sim 300#59846508381D382B
(49.230554) sim 7E8#5A9E9901FCAEBAC9
(49.251038) sim 18DAF110#5BF6A4D218436BBB
(49.271591) sim 456#5C69B4B4E1A70C5F
(49.292245) sim 300#5D4F74AED351010C
(49.312736) sim 200#5E9B644707F67A81
(49.333098) sim 7E8#5F8D1B0BBEBD2695
(49.353549) sim 7E0#60AF37A9560EF427
(49.374082) sim 456#619F856BB8C4D305
(49.394583) sim 7E8#620E3331E9572336
(49.415075) sim 456#634FBA69A4E68728
(49.435598) sim 300#64779F3D4146CABD
(49.456296) sim 456#65A89CEAD3B6D657
(49.477088) sim 7E0#66A08989A284BB5D
(49.497812) sim 7E0#67902C14FDA50D1B
(49.518465) sim 7E0#688C7D8CE4B2C50E
(49.539346) sim 7E0#698240FB51C396C0
(49.559774) sim 123#6ADAA27E32652A69
(49.580156) sim 456#6B219A122992C343
(49.600454) sim 456#6CB217A1CC9E52E7
(49.620830) sim 7E0#6D6F7C347FFF3417
(49.641231) sim 200#6E1B83638ADF4495
(49.661887) sim 123#6FC0CAF551533BA3
(49.682372) sim 18FF50E0#705F33232F400B13
(49.702967) sim 456#71E6C3AA7DE9571A
(49.723396) sim 18DAF110#72CD6A2DE6B46838
(49.743941) sim 456#73B2C92799680CE0
(49.764279) sim 7E0#7433B55A4ABC0719
(49.784798) sim 123#7505C40FAF945CFB
(49.805243) sim 300#769668906790B192
(49.825724) sim 18FF50E0#7770955D01B86E1F
(49.846166) sim 7E0#78F7D0C5644F3591
(49.866570) sim 18FF50E0#79A40A7FDB8A42F7
(49.887048) sim 456#7ADEDF378D3DBC3B
(49.907489) sim 200#7B4E7370D7435E1E
(49.927820) sim 7E0#7C9C315D0216EAF0
(49.948198) sim 18DAF110#7D567194224EE29E
(49.968757) sim 300#7E9DB63ACF75DBAD
(49.989369) sim 200#7F2057477EA080A0
(50.009776) sim 18FF50E0#80193D22A718AA22
(50.030173) sim 300#812EA119B032288C
(50.050823) sim 18FF50E0#82EE1C503C4AD0FE
(50.071354) sim 456#83F77CBB315BF432
(50.092102) sim 18DAF110#84632EE0BE84F007
(50.112627) sim 7E8#859FB96F46C4A440
(50.133282) sim 7E8#8672FBC763F0798C
(50.153915) sim 18FF50E0#873B1C87FBA0E9DF
(50.174711) sim 7E0#88D326803A5894F5
(50.195482) sim 200#8977F6C7E876A4FB
(50.216121) sim 300#8A230175A8818112
(50.237008) sim 456#8B37EE1F89007512
(50.257585) sim 456#8C55271F2FAB6BE4
(50.278133) sim 123#8D5798BA5A62D4E9
(50.298667) sim 456#8E0E6D8C709C3E38
(50.319233) sim 7E8#8F6749E51BDE29E5
(50.339613) sim 18FF50E0#90EB07E75FFB861B
(50.360030) sim 7E8#9166ADC2BC199F5C
(50.380663) sim 18FF50E0#923B4AD4C0F33DD6
(50.401322) sim 200#934CAC54C9BFE40C
(50.421840) sim 18FF50E0#941EA0FECFAA8493
(50.443557) sim 456#95A56B31CD00CAC4
(50.464232) sim 7E8#9636888A163AB639
(50.484777) sim 300#971662ACD564393E
(50.505519) sim 18DAF110#984101F7174EA314
(50.526273) sim 7E8#998D543134E2C47E
(50.546798) sim 123#9AFC5BEE730D2A2C
(50.567359) sim 123#9BD3B9C542D0A0FA
(50.588011) sim 18DAF110#9CB4FCC05C64CC7F
(50.608587) sim 7E8#9DE58D3421A6EB60
(50.629333) sim 456#9EE33917FBCA7C70
(50.649853) sim 7E0#9F1BA81C926BFF85
(50.670255) sim 456#A01D930AA883E607
(50.690877) sim 456#A1298E6C210C3270
(50.711281) sim 7E8#A2496778AD70C25A
(50.731642) sim 300#A39D8D64B53B43EF
(50.752108) sim 200#A4C96BD5FB1C97CE
(50.772396) sim 18FF50E0#A5EFAD0A70EFC173
(50.792661) sim 300#A6FD4A84DE252727
(50.813086) sim 300#A7A336727026CA07
(50.833554) sim 18FF50E0#A867149F31F0D1F0
(50.854097) sim 123#A9CEB3747B2F34D6
(50.874498) sim 7E8#AA14787F636DCFF9
(50.894957) sim 200#ABEB55A27F6CC767
(50.915308) sim 300#AC770FD76F2BB667
(50.935680) sim 18FF50E0#ADE469D42FC69215
(50.956396) sim 7E8#AEB1662901B35EEB
(50.976960) sim 18DAF110#AFD5983BC1B2F6DF
(50.997484) sim 200#B003373B0FDC882B
(51.018032) sim 200#B1B14275D3F5E300
(51.038581) sim 7E0#B218D0327285D85D
(51.059244) sim 18FF50E0#B387A50D591FA309
(51.079856) sim 200#B442E5C44AE5FC2F
(51.100299) sim 18DAF110#B5CFA3105A11F2F0
(51.115175) sim 18DAF110#B66C9A71B269AAF5
(51.135846) sim 7E8#B75C96CDDB2D38B3
(51.156282) sim 123#B84081794C352C90
(51.176793) sim 18DAF110#B9D5CADB754D26E5
(51.197342) sim 18FF50E0#BAAF5AC851E82921
(51.218015) sim 18FF50E0#BB53F900874816F0
(51.238638) sim 200#BCA39560F8464797
(51.259156) sim 7E0#BD0F8F25309C9EAB
(51.279754) sim 123#BEBF785CF6541B2F
(51.300320) sim 123#BFDAF12B15E1728B
(51.320912) sim 200#C0DA56FF6BA3122C
(51.341468) sim 123#C13968C59A47E5F5
(51.361938) sim 123#C29BA6790A0F97A4
(51.382526) sim 456#C3DDB0ABC795892A
(51.403021) sim 456#C49D4B9DF9AB8CE8
(51.423616) sim 456#C5F69376B14E4059
(51.444102) sim 18FF50E0#C61E5E8D5287B979
(51.464709) sim 7E0#C783C4615DBFA334
(51.485255) sim 300#C8718AA2BA02EAF1
(51.505903) sim 200#C9878B296ED5DA45
(51.526824) sim 456#CA7E3939BEB48761
(51.547497) sim 456#CB7D87D7647E42BC
(51.567910) sim 18DAF110#CC43497260E753FD
(51.588411) sim 300#CDFAB6DD7806F303
(51.608784) sim 7E8#CEE61700C4A3A533
(51.629304) sim 7E0#CFC9D63F0F8AF7C7
(51.649728) sim 456#D09B682BA6956B37
(51.670179) sim 300#D1DEA7AABEE2420A
(51.690796) sim 300#D2A85788BF7089C7
(51.711282) sim 18DAF110#D37D48B0A2B7D85A
(51.731723) sim 18DAF110#D4387CFEDC912BB6
(51.752330) sim 200#D5F311F10905A863
(51.773015) sim 123#D6B00D1926C973B6
(51.793521) sim 123#D74E7173A783B897
(51.814175) sim 7E8#D80FE1B205B3031F
(51.834866) sim 200#D98D8EFBF61C00B9
(51.855575) sim 7E8#DA17682C342E4D98
(51.876153) sim 18DAF110#DBD640E62A44B3D6
(51.897087) sim 300#DC5DA7605FBED459
(51.917545) sim 200#DDC6D65ED5139643
(51.937922) sim 123#DE269F553A139749
(51.958394) sim 7E0#DF09C260BD13D824
(51.978891) sim 123#E036B2801A2F350C
(51.999482) sim 18DAF110#E13F6E25C748D71A
(52.020039) sim 7E0#E273FD5662916469
(52.040476) sim 300#E34014591C135078
(52.060919) sim 300#E433D5CCE5CCD026
(52.081334) sim 7E0#E5766F0C99AA3C1E
(52.101631) sim 7E0#E629980060ADE152
(52.122180) sim 18DAF110#E7CB2276610575C0
(52.142472) sim 456#E846C7F5920D0CD9
(52.162692) sim 456#E96602C55BE85372
(52.182918) sim 18FF50E0#EA010A63F63998AB
(52.203162) sim 18FF50E0#EB0A78970F63C2BA
(52.223398) sim 7E0#EC2FEBEC6DA03E73
(52.243604) sim 456#ED4440E217EEEDDA
(52.263876) sim 7E0#EE738A14B709D962
(52.284066) sim 7E0#EF65F78F844C60D8
(52.304330) sim 300#F0066D6591F487FD
(52.324573) sim 300#F18C1317237420A5
(52.344778) sim 300#F2DCF2FC40D2AF31
(52.365147) sim 300#F38B54A930D9734D
(52.385502) sim 456#F4F67E1F54C66A6F
(52.405777) sim 123#F5CAF4D682266D01
(52.426083) sim 456#F670B077430EC245
(52.446430) sim 7E0#F74EBDEDB4332C1D
(52.466870) sim 7E0#F83DDBA136698595
(52.487596) sim 7E8#F92B6AEFD1D2D818
(52.508196) sim 7E0#FA0B601AFD7F6BB0
(52.529085) sim 300#FB38024CE53E4846
(52.549695) sim 18DAF110#FC36FCA0582CCB3C
(52.570601) sim 18FF50E0#FD111F71FD89C831
(52.591199) sim 200#FEC94719F6143A68
(52.612039) sim 18FF50E0#FFC22E0071445963
(52.632583) sim 200#00DA0AFC2A8B51CC
(52.653190) sim 7E0#01D6376E54300D7C
(52.673752) sim 18DAF110#022FA88BF865FA3E
(52.694524) sim 7E0#034C63A55A040CC4
(52.715118) sim 7E0#04D84CE108D3561C
(52.735646) sim 18FF50E0#054D501E05A7839A
(52.756358) sim 456#06692C1F3796D4AD
(52.776897) sim 456#0721A3899513B7A6
(52.797446) sim 7E0#089905E8255903CE
(52.818053) sim 18DAF110#092677C72C804481
(52.838758) sim 456#0A6BC165649F3733
(52.859238) sim 200#0B012677B103163C
(52.879570) sim 18DAF110#0CE57E6D5574CDCC
(52.900017) sim 456#0D33965568CD7FDF
(52.920683) sim 7E8#0E7EADBF145044C7
(52.941323) sim 18FF50E0#0F9385C00F382D78
(52.961860) sim 456#10C172EDEB14CF92
(52.982611) sim 200#11568801E4369B8C
(53.003395) sim 200#129C5854A262994D
(53.024212) sim 7E0#13DD245E223AC586
(53.044915) sim 7E0#1476D4440DE5028D
(53.065452) sim 18FF50E0#157F12791CD17C4C
(53.086070) sim 18DAF110#1622953A411F0A74
(53.106857) sim 7E8#178220124F48AE43
(53.127692) sim 18DAF110#18CA8F757D1B0309
(53.148409) sim 123#1919F04BD0F70DC5
(53.169234) sim 200#1A7B5E88738ACFAA
(53.189749) sim 7E0#1B3FF029BDAC0771
(53.210385) sim 18FF50E0#1C9D0E0A9D3C1A96
(53.231183) sim 18FF50E0#1D61610D6D321280
(53.251686) sim 200#1ECE4ED38DB87C7C
(53.272471) sim 18DAF110#1F9F09CD1C785621
(53.293094) sim 200#2081BA413CB72A47
(53.313788) sim 200#21F360AD21CADDAD
(53.334540) sim 456#221D96993D1D8120
(53.355194) sim 7E8#23087B4D6E4F0592
(53.375764) sim 200#24412A139DDC2EF8
(53.396344) sim 200#25E11DD883CE2383
(53.417117) sim 456#267B339A851497A3
(53.437758) sim 7E0#27CDC6BE08CA9200
(53.458215) sim 123#2846F03EB7B70876
(53.478855) sim 123#29879BA5221B02A7
(53.499655) sim 7E0#2AF2290FEE8A3C00
(53.520150) sim 18FF50E0#2B108570D07D6586
(53.540722) sim 123#2C89BCA7F59ACA57
(53.561503) sim 18DAF110#2D9AE4640764B655
(53.582013) sim 18DAF110#2E417D74C1783D01
(53.602775) sim 7E0#2F969E2CD0F885F0
(53.623334) sim 200#30A795578F6B290D
(53.643838) sim 123#318959D548C7A5F8
(53.664341) sim 200#32E340521AF521C8
(53.684818) sim 123#334EB6171618EAD3
(53.705255) sim 7E0#3486EF360A9E0954
(53.725751) sim 7E0#351AB1A1D7DBD031
(53.746496) sim 7E8#367ACCD4B7DE3DEA
(53.767134) sim 18FF50E0#3710DAC659E3C857
(53.787781) sim 200#38ADD9007D8F1F08
(53.808239) sim 300#395410FBE136AC3A
(53.828692) sim 7E0#3A7A98DD9E6326D1
(53.849252) sim 200#3B45D36BB28DFBE9
(53.869721) sim 7E8#3C9CFBAE0863554A
(53.890132) sim 18FF50E0#3DD0F3E5B6065F3E
(53.910801) sim 18DAF110#3E630B0E32EBD700
(53.931324) sim 18DAF110#3F5DB472FEF273EE
(53.951789) sim 18FF50E0#406072DEC2FEFF63
(53.972289) sim 18DAF110#41F528213256D9F8
